Command: vcs -l vcs.log -timescale=1ns/1ps -sverilog -ntb_opts uvm -debug_access+all \
-full64 -kdb -lca -P /home/cad/eda/SYNOPSYS/VERDI_2022/verdi/T-2022.06-SP1/share/PLI/VCS/LINUX64/novas.tab \
/home/cad/eda/SYNOPSYS/VERDI_2022/verdi/T-2022.06-SP1/share/PLI/VCS/LINUX64/pli.a \
../rtl/ahb_apb_top.v ../rtl/ahb_slave.v ../rtl/apb_controller.v ../rtl/apb_interface.v \
../rtl/bridge_if.sv +define+WRAPPING_INCR +incdir+../tb +incdir+../source +incdir+../destination \
../tb/pkg.sv ../tb/top.sv
                         Chronologic VCS (TM)
       Version T-2022.06-SP1_Full64 -- Sun May  4 14:27:02 2025

                    Copyright (c) 1991 - 2022 Synopsys, Inc.
   This software and the associated documentation are proprietary to Synopsys,
 Inc. This software may only be used in accordance with the terms and conditions
 of a written license agreement with Synopsys, Inc. All other use, reproduction,
   or distribution of this software is strictly prohibited.  Licensed Products
     communicate with Synopsys servers for the purpose of providing software
    updates, detecting software piracy and verifying that customers are using
    Licensed Products in conformity with the applicable License Key for such
  Licensed Products. Synopsys will use information gathered in connection with
    this process to deliver software updates and pursue software pirates and
                                   infringers.

 Inclusivity & Diversity - Visit SolvNetPlus to read the "Synopsys Statement on
            Inclusivity and Diversity" (Refer to article 000036315 at
                        https://solvnetplus.synopsys.com)


Warning-[LCA_FEATURES_ENABLED] Usage warning
  LCA features enabled by '-lca' argument on the command line.  For more 
  information regarding list of LCA features please refer to Chapter "LCA 
  features" in the VCS Release Notes

Parsing design file '/home/cad/eda/SYNOPSYS/VCS/vcs/T-2022.06-SP1/etc/uvm/uvm_pkg.sv'
Parsing included file '/home/cad/eda/SYNOPSYS/VCS/vcs/T-2022.06-SP1/etc/uvm/uvm_macros.svh'.
Parsing included file '/home/cad/eda/SYNOPSYS/VCS/vcs/T-2022.06-SP1/etc/uvm/macros/uvm_version_defines.svh'.
Back to file '/home/cad/eda/SYNOPSYS/VCS/vcs/T-2022.06-SP1/etc/uvm/uvm_macros.svh'.
Parsing included file '/home/cad/eda/SYNOPSYS/VCS/vcs/T-2022.06-SP1/etc/uvm/macros/snps_macros.svp'.
Back to file '/home/cad/eda/SYNOPSYS/VCS/vcs/T-2022.06-SP1/etc/uvm/uvm_macros.svh'.
Parsing included file '/home/cad/eda/SYNOPSYS/VCS/vcs/T-2022.06-SP1/etc/uvm/macros/uvm_message_defines.svh'.
Back to file '/home/cad/eda/SYNOPSYS/VCS/vcs/T-2022.06-SP1/etc/uvm/uvm_macros.svh'.
Parsing included file '/home/cad/eda/SYNOPSYS/VCS/vcs/T-2022.06-SP1/etc/uvm/macros/uvm_phase_defines.svh'.
Back to file '/home/cad/eda/SYNOPSYS/VCS/vcs/T-2022.06-SP1/etc/uvm/uvm_macros.svh'.
Parsing included file '/home/cad/eda/SYNOPSYS/VCS/vcs/T-2022.06-SP1/etc/uvm/macros/uvm_object_defines.svh'.
Back to file '/home/cad/eda/SYNOPSYS/VCS/vcs/T-2022.06-SP1/etc/uvm/uvm_macros.svh'.
Parsing included file '/home/cad/eda/SYNOPSYS/VCS/vcs/T-2022.06-SP1/etc/uvm/macros/uvm_printer_defines.svh'.
Back to file '/home/cad/eda/SYNOPSYS/VCS/vcs/T-2022.06-SP1/etc/uvm/uvm_macros.svh'.
Parsing included file '/home/cad/eda/SYNOPSYS/VCS/vcs/T-2022.06-SP1/etc/uvm/macros/uvm_tlm_defines.svh'.
Parsing included file '/home/cad/eda/SYNOPSYS/VCS/vcs/T-2022.06-SP1/etc/uvm/tlm1/uvm_tlm_imps.svh'.
Back to file '/home/cad/eda/SYNOPSYS/VCS/vcs/T-2022.06-SP1/etc/uvm/macros/uvm_tlm_defines.svh'.
Back to file '/home/cad/eda/SYNOPSYS/VCS/vcs/T-2022.06-SP1/etc/uvm/uvm_macros.svh'.
Parsing included file '/home/cad/eda/SYNOPSYS/VCS/vcs/T-2022.06-SP1/etc/uvm/macros/uvm_sequence_defines.svh'.
Back to file '/home/cad/eda/SYNOPSYS/VCS/vcs/T-2022.06-SP1/etc/uvm/uvm_macros.svh'.
Parsing included file '/home/cad/eda/SYNOPSYS/VCS/vcs/T-2022.06-SP1/etc/uvm/macros/uvm_callback_defines.svh'.
Back to file '/home/cad/eda/SYNOPSYS/VCS/vcs/T-2022.06-SP1/etc/uvm/uvm_macros.svh'.
Parsing included file '/home/cad/eda/SYNOPSYS/VCS/vcs/T-2022.06-SP1/etc/uvm/macros/uvm_reg_defines.svh'.
Back to file '/home/cad/eda/SYNOPSYS/VCS/vcs/T-2022.06-SP1/etc/uvm/uvm_macros.svh'.
Parsing included file '/home/cad/eda/SYNOPSYS/VCS/vcs/T-2022.06-SP1/etc/uvm/macros/uvm_deprecated_defines.svh'.
Back to file '/home/cad/eda/SYNOPSYS/VCS/vcs/T-2022.06-SP1/etc/uvm/uvm_macros.svh'.
Back to file '/home/cad/eda/SYNOPSYS/VCS/vcs/T-2022.06-SP1/etc/uvm/uvm_pkg.sv'.
Parsing included file '/home/cad/eda/SYNOPSYS/VCS/vcs/T-2022.06-SP1/etc/uvm/directc/uvm_directc.svh'.
Parsing included file '/home/cad/eda/SYNOPSYS/VCS/vcs/T-2022.06-SP1/etc/uvm/directc/uvm_seed.vh'.
Back to file '/home/cad/eda/SYNOPSYS/VCS/vcs/T-2022.06-SP1/etc/uvm/directc/uvm_directc.svh'.
Back to file '/home/cad/eda/SYNOPSYS/VCS/vcs/T-2022.06-SP1/etc/uvm/uvm_pkg.sv'.
Parsing included file '/home/cad/eda/SYNOPSYS/VCS/vcs/T-2022.06-SP1/etc/uvm/dpi/uvm_dpi.svh'.
Parsing included file '/home/cad/eda/SYNOPSYS/VCS/vcs/T-2022.06-SP1/etc/uvm/dpi/uvm_hdl.svh'.
Back to file '/home/cad/eda/SYNOPSYS/VCS/vcs/T-2022.06-SP1/etc/uvm/dpi/uvm_dpi.svh'.
Parsing included file '/home/cad/eda/SYNOPSYS/VCS/vcs/T-2022.06-SP1/etc/uvm/dpi/uvm_svcmd_dpi.svh'.
Back to file '/home/cad/eda/SYNOPSYS/VCS/vcs/T-2022.06-SP1/etc/uvm/dpi/uvm_dpi.svh'.
Parsing included file '/home/cad/eda/SYNOPSYS/VCS/vcs/T-2022.06-SP1/etc/uvm/dpi/uvm_regex.svh'.
Back to file '/home/cad/eda/SYNOPSYS/VCS/vcs/T-2022.06-SP1/etc/uvm/dpi/uvm_dpi.svh'.
Back to file '/home/cad/eda/SYNOPSYS/VCS/vcs/T-2022.06-SP1/etc/uvm/uvm_pkg.sv'.
Parsing included file '/home/cad/eda/SYNOPSYS/VCS/vcs/T-2022.06-SP1/etc/uvm/base/uvm_base.svh'.
Parsing included file '/home/cad/eda/SYNOPSYS/VCS/vcs/T-2022.06-SP1/etc/uvm/base/uvm_version.svh'.
Back to file '/home/cad/eda/SYNOPSYS/VCS/vcs/T-2022.06-SP1/etc/uvm/base/uvm_base.svh'.
Parsing included file '/home/cad/eda/SYNOPSYS/VCS/vcs/T-2022.06-SP1/etc/uvm/base/uvm_object_globals.svh'.
Back to file '/home/cad/eda/SYNOPSYS/VCS/vcs/T-2022.06-SP1/etc/uvm/base/uvm_base.svh'.
Parsing included file '/home/cad/eda/SYNOPSYS/VCS/vcs/T-2022.06-SP1/etc/uvm/base/uvm_misc.svh'.
Back to file '/home/cad/eda/SYNOPSYS/VCS/vcs/T-2022.06-SP1/etc/uvm/base/uvm_base.svh'.
Parsing included file '/home/cad/eda/SYNOPSYS/VCS/vcs/T-2022.06-SP1/etc/uvm/base/uvm_object.svh'.
Back to file '/home/cad/eda/SYNOPSYS/VCS/vcs/T-2022.06-SP1/etc/uvm/base/uvm_base.svh'.
Parsing included file '/home/cad/eda/SYNOPSYS/VCS/vcs/T-2022.06-SP1/etc/uvm/base/uvm_pool.svh'.
Back to file '/home/cad/eda/SYNOPSYS/VCS/vcs/T-2022.06-SP1/etc/uvm/base/uvm_base.svh'.
Parsing included file '/home/cad/eda/SYNOPSYS/VCS/vcs/T-2022.06-SP1/etc/uvm/base/uvm_queue.svh'.
Back to file '/home/cad/eda/SYNOPSYS/VCS/vcs/T-2022.06-SP1/etc/uvm/base/uvm_base.svh'.
Parsing included file '/home/cad/eda/SYNOPSYS/VCS/vcs/T-2022.06-SP1/etc/uvm/base/uvm_factory.svh'.
Back to file '/home/cad/eda/SYNOPSYS/VCS/vcs/T-2022.06-SP1/etc/uvm/base/uvm_base.svh'.
Parsing included file '/home/cad/eda/SYNOPSYS/VCS/vcs/T-2022.06-SP1/etc/uvm/base/uvm_registry.svh'.
Back to file '/home/cad/eda/SYNOPSYS/VCS/vcs/T-2022.06-SP1/etc/uvm/base/uvm_base.svh'.
Parsing included file '/home/cad/eda/SYNOPSYS/VCS/vcs/T-2022.06-SP1/etc/uvm/base/uvm_spell_chkr.svh'.
Back to file '/home/cad/eda/SYNOPSYS/VCS/vcs/T-2022.06-SP1/etc/uvm/base/uvm_base.svh'.
Parsing included file '/home/cad/eda/SYNOPSYS/VCS/vcs/T-2022.06-SP1/etc/uvm/base/uvm_resource.svh'.
Back to file '/home/cad/eda/SYNOPSYS/VCS/vcs/T-2022.06-SP1/etc/uvm/base/uvm_base.svh'.
Parsing included file '/home/cad/eda/SYNOPSYS/VCS/vcs/T-2022.06-SP1/etc/uvm/deprecated/uvm_resource_converter.svh'.
Back to file '/home/cad/eda/SYNOPSYS/VCS/vcs/T-2022.06-SP1/etc/uvm/base/uvm_base.svh'.
Parsing included file '/home/cad/eda/SYNOPSYS/VCS/vcs/T-2022.06-SP1/etc/uvm/base/uvm_resource_specializations.svh'.
Back to file '/home/cad/eda/SYNOPSYS/VCS/vcs/T-2022.06-SP1/etc/uvm/base/uvm_base.svh'.
Parsing included file '/home/cad/eda/SYNOPSYS/VCS/vcs/T-2022.06-SP1/etc/uvm/base/uvm_resource_db.svh'.
Back to file '/home/cad/eda/SYNOPSYS/VCS/vcs/T-2022.06-SP1/etc/uvm/base/uvm_base.svh'.
Parsing included file '/home/cad/eda/SYNOPSYS/VCS/vcs/T-2022.06-SP1/etc/uvm/base/uvm_config_db.svh'.
Back to file '/home/cad/eda/SYNOPSYS/VCS/vcs/T-2022.06-SP1/etc/uvm/base/uvm_base.svh'.
Parsing included file '/home/cad/eda/SYNOPSYS/VCS/vcs/T-2022.06-SP1/etc/uvm/base/uvm_printer.svh'.
Back to file '/home/cad/eda/SYNOPSYS/VCS/vcs/T-2022.06-SP1/etc/uvm/base/uvm_base.svh'.
Parsing included file '/home/cad/eda/SYNOPSYS/VCS/vcs/T-2022.06-SP1/etc/uvm/base/uvm_comparer.svh'.
Back to file '/home/cad/eda/SYNOPSYS/VCS/vcs/T-2022.06-SP1/etc/uvm/base/uvm_base.svh'.
Parsing included file '/home/cad/eda/SYNOPSYS/VCS/vcs/T-2022.06-SP1/etc/uvm/base/uvm_packer.svh'.
Back to file '/home/cad/eda/SYNOPSYS/VCS/vcs/T-2022.06-SP1/etc/uvm/base/uvm_base.svh'.
Parsing included file '/home/cad/eda/SYNOPSYS/VCS/vcs/T-2022.06-SP1/etc/uvm/base/uvm_recorder.svh'.
Back to file '/home/cad/eda/SYNOPSYS/VCS/vcs/T-2022.06-SP1/etc/uvm/base/uvm_base.svh'.
Parsing included file '/home/cad/eda/SYNOPSYS/VCS/vcs/T-2022.06-SP1/etc/uvm/base/uvm_event_callback.svh'.
Back to file '/home/cad/eda/SYNOPSYS/VCS/vcs/T-2022.06-SP1/etc/uvm/base/uvm_base.svh'.
Parsing included file '/home/cad/eda/SYNOPSYS/VCS/vcs/T-2022.06-SP1/etc/uvm/base/uvm_event.svh'.
Back to file '/home/cad/eda/SYNOPSYS/VCS/vcs/T-2022.06-SP1/etc/uvm/base/uvm_base.svh'.
Parsing included file '/home/cad/eda/SYNOPSYS/VCS/vcs/T-2022.06-SP1/etc/uvm/base/uvm_barrier.svh'.
Back to file '/home/cad/eda/SYNOPSYS/VCS/vcs/T-2022.06-SP1/etc/uvm/base/uvm_base.svh'.
Parsing included file '/home/cad/eda/SYNOPSYS/VCS/vcs/T-2022.06-SP1/etc/uvm/base/uvm_callback.svh'.
Parsing included file '/home/cad/eda/SYNOPSYS/VCS/vcs/T-2022.06-SP1/etc/uvm/uvm_macros.svh'.
Back to file '/home/cad/eda/SYNOPSYS/VCS/vcs/T-2022.06-SP1/etc/uvm/base/uvm_callback.svh'.
Back to file '/home/cad/eda/SYNOPSYS/VCS/vcs/T-2022.06-SP1/etc/uvm/base/uvm_base.svh'.
Parsing included file '/home/cad/eda/SYNOPSYS/VCS/vcs/T-2022.06-SP1/etc/uvm/base/uvm_report_catcher.svh'.
Back to file '/home/cad/eda/SYNOPSYS/VCS/vcs/T-2022.06-SP1/etc/uvm/base/uvm_base.svh'.
Parsing included file '/home/cad/eda/SYNOPSYS/VCS/vcs/T-2022.06-SP1/etc/uvm/base/uvm_report_server.svh'.
Back to file '/home/cad/eda/SYNOPSYS/VCS/vcs/T-2022.06-SP1/etc/uvm/base/uvm_base.svh'.
Parsing included file '/home/cad/eda/SYNOPSYS/VCS/vcs/T-2022.06-SP1/etc/uvm/base/uvm_report_handler.svh'.
Back to file '/home/cad/eda/SYNOPSYS/VCS/vcs/T-2022.06-SP1/etc/uvm/base/uvm_base.svh'.
Parsing included file '/home/cad/eda/SYNOPSYS/VCS/vcs/T-2022.06-SP1/etc/uvm/base/uvm_report_object.svh'.
Back to file '/home/cad/eda/SYNOPSYS/VCS/vcs/T-2022.06-SP1/etc/uvm/base/uvm_base.svh'.
Parsing included file '/home/cad/eda/SYNOPSYS/VCS/vcs/T-2022.06-SP1/etc/uvm/base/uvm_transaction.svh'.
Back to file '/home/cad/eda/SYNOPSYS/VCS/vcs/T-2022.06-SP1/etc/uvm/base/uvm_base.svh'.
Parsing included file '/home/cad/eda/SYNOPSYS/VCS/vcs/T-2022.06-SP1/etc/uvm/base/uvm_phase.svh'.
Back to file '/home/cad/eda/SYNOPSYS/VCS/vcs/T-2022.06-SP1/etc/uvm/base/uvm_base.svh'.
Parsing included file '/home/cad/eda/SYNOPSYS/VCS/vcs/T-2022.06-SP1/etc/uvm/base/uvm_domain.svh'.
Back to file '/home/cad/eda/SYNOPSYS/VCS/vcs/T-2022.06-SP1/etc/uvm/base/uvm_base.svh'.
Parsing included file '/home/cad/eda/SYNOPSYS/VCS/vcs/T-2022.06-SP1/etc/uvm/base/uvm_bottomup_phase.svh'.
Back to file '/home/cad/eda/SYNOPSYS/VCS/vcs/T-2022.06-SP1/etc/uvm/base/uvm_base.svh'.
Parsing included file '/home/cad/eda/SYNOPSYS/VCS/vcs/T-2022.06-SP1/etc/uvm/base/uvm_topdown_phase.svh'.
Back to file '/home/cad/eda/SYNOPSYS/VCS/vcs/T-2022.06-SP1/etc/uvm/base/uvm_base.svh'.
Parsing included file '/home/cad/eda/SYNOPSYS/VCS/vcs/T-2022.06-SP1/etc/uvm/base/uvm_task_phase.svh'.
Back to file '/home/cad/eda/SYNOPSYS/VCS/vcs/T-2022.06-SP1/etc/uvm/base/uvm_base.svh'.
Parsing included file '/home/cad/eda/SYNOPSYS/VCS/vcs/T-2022.06-SP1/etc/uvm/base/uvm_common_phases.svh'.
Back to file '/home/cad/eda/SYNOPSYS/VCS/vcs/T-2022.06-SP1/etc/uvm/base/uvm_base.svh'.
Parsing included file '/home/cad/eda/SYNOPSYS/VCS/vcs/T-2022.06-SP1/etc/uvm/base/uvm_runtime_phases.svh'.
Back to file '/home/cad/eda/SYNOPSYS/VCS/vcs/T-2022.06-SP1/etc/uvm/base/uvm_base.svh'.
Parsing included file '/home/cad/eda/SYNOPSYS/VCS/vcs/T-2022.06-SP1/etc/uvm/base/uvm_component.svh'.
Parsing included file '/home/cad/eda/SYNOPSYS/VCS/vcs/T-2022.06-SP1/etc/uvm/base/uvm_root.svh'.
Back to file '/home/cad/eda/SYNOPSYS/VCS/vcs/T-2022.06-SP1/etc/uvm/base/uvm_component.svh'.
Back to file '/home/cad/eda/SYNOPSYS/VCS/vcs/T-2022.06-SP1/etc/uvm/base/uvm_base.svh'.
Parsing included file '/home/cad/eda/SYNOPSYS/VCS/vcs/T-2022.06-SP1/etc/uvm/base/uvm_objection.svh'.
Back to file '/home/cad/eda/SYNOPSYS/VCS/vcs/T-2022.06-SP1/etc/uvm/base/uvm_base.svh'.
Parsing included file '/home/cad/eda/SYNOPSYS/VCS/vcs/T-2022.06-SP1/etc/uvm/base/uvm_heartbeat.svh'.
Back to file '/home/cad/eda/SYNOPSYS/VCS/vcs/T-2022.06-SP1/etc/uvm/base/uvm_base.svh'.
Parsing included file '/home/cad/eda/SYNOPSYS/VCS/vcs/T-2022.06-SP1/etc/uvm/base/uvm_globals.svh'.
Back to file '/home/cad/eda/SYNOPSYS/VCS/vcs/T-2022.06-SP1/etc/uvm/base/uvm_base.svh'.
Parsing included file '/home/cad/eda/SYNOPSYS/VCS/vcs/T-2022.06-SP1/etc/uvm/base/uvm_cmdline_processor.svh'.
Back to file '/home/cad/eda/SYNOPSYS/VCS/vcs/T-2022.06-SP1/etc/uvm/base/uvm_base.svh'.
Back to file '/home/cad/eda/SYNOPSYS/VCS/vcs/T-2022.06-SP1/etc/uvm/uvm_pkg.sv'.
Parsing included file '/home/cad/eda/SYNOPSYS/VCS/vcs/T-2022.06-SP1/etc/uvm/tlm1/uvm_tlm.svh'.
Parsing included file '/home/cad/eda/SYNOPSYS/VCS/vcs/T-2022.06-SP1/etc/uvm/tlm1/uvm_tlm_ifs.svh'.
Back to file '/home/cad/eda/SYNOPSYS/VCS/vcs/T-2022.06-SP1/etc/uvm/tlm1/uvm_tlm.svh'.
Parsing included file '/home/cad/eda/SYNOPSYS/VCS/vcs/T-2022.06-SP1/etc/uvm/tlm1/uvm_sqr_ifs.svh'.
Back to file '/home/cad/eda/SYNOPSYS/VCS/vcs/T-2022.06-SP1/etc/uvm/tlm1/uvm_tlm.svh'.
Parsing included file '/home/cad/eda/SYNOPSYS/VCS/vcs/T-2022.06-SP1/etc/uvm/base/uvm_port_base.svh'.
Back to file '/home/cad/eda/SYNOPSYS/VCS/vcs/T-2022.06-SP1/etc/uvm/tlm1/uvm_tlm.svh'.
Parsing included file '/home/cad/eda/SYNOPSYS/VCS/vcs/T-2022.06-SP1/etc/uvm/tlm1/uvm_tlm_imps.svh'.
Back to file '/home/cad/eda/SYNOPSYS/VCS/vcs/T-2022.06-SP1/etc/uvm/tlm1/uvm_tlm.svh'.
Parsing included file '/home/cad/eda/SYNOPSYS/VCS/vcs/T-2022.06-SP1/etc/uvm/tlm1/uvm_imps.svh'.
Back to file '/home/cad/eda/SYNOPSYS/VCS/vcs/T-2022.06-SP1/etc/uvm/tlm1/uvm_tlm.svh'.
Parsing included file '/home/cad/eda/SYNOPSYS/VCS/vcs/T-2022.06-SP1/etc/uvm/tlm1/uvm_ports.svh'.
Back to file '/home/cad/eda/SYNOPSYS/VCS/vcs/T-2022.06-SP1/etc/uvm/tlm1/uvm_tlm.svh'.
Parsing included file '/home/cad/eda/SYNOPSYS/VCS/vcs/T-2022.06-SP1/etc/uvm/tlm1/uvm_exports.svh'.
Back to file '/home/cad/eda/SYNOPSYS/VCS/vcs/T-2022.06-SP1/etc/uvm/tlm1/uvm_tlm.svh'.
Parsing included file '/home/cad/eda/SYNOPSYS/VCS/vcs/T-2022.06-SP1/etc/uvm/tlm1/uvm_analysis_port.svh'.
Back to file '/home/cad/eda/SYNOPSYS/VCS/vcs/T-2022.06-SP1/etc/uvm/tlm1/uvm_tlm.svh'.
Parsing included file '/home/cad/eda/SYNOPSYS/VCS/vcs/T-2022.06-SP1/etc/uvm/tlm1/uvm_tlm_fifo_base.svh'.
Back to file '/home/cad/eda/SYNOPSYS/VCS/vcs/T-2022.06-SP1/etc/uvm/tlm1/uvm_tlm.svh'.
Parsing included file '/home/cad/eda/SYNOPSYS/VCS/vcs/T-2022.06-SP1/etc/uvm/tlm1/uvm_tlm_fifos.svh'.
Back to file '/home/cad/eda/SYNOPSYS/VCS/vcs/T-2022.06-SP1/etc/uvm/tlm1/uvm_tlm.svh'.
Parsing included file '/home/cad/eda/SYNOPSYS/VCS/vcs/T-2022.06-SP1/etc/uvm/tlm1/uvm_tlm_req_rsp.svh'.
Back to file '/home/cad/eda/SYNOPSYS/VCS/vcs/T-2022.06-SP1/etc/uvm/tlm1/uvm_tlm.svh'.
Parsing included file '/home/cad/eda/SYNOPSYS/VCS/vcs/T-2022.06-SP1/etc/uvm/tlm1/uvm_sqr_connections.svh'.
Back to file '/home/cad/eda/SYNOPSYS/VCS/vcs/T-2022.06-SP1/etc/uvm/tlm1/uvm_tlm.svh'.
Back to file '/home/cad/eda/SYNOPSYS/VCS/vcs/T-2022.06-SP1/etc/uvm/uvm_pkg.sv'.
Parsing included file '/home/cad/eda/SYNOPSYS/VCS/vcs/T-2022.06-SP1/etc/uvm/comps/uvm_comps.svh'.
Parsing included file '/home/cad/eda/SYNOPSYS/VCS/vcs/T-2022.06-SP1/etc/uvm/comps/uvm_pair.svh'.
Back to file '/home/cad/eda/SYNOPSYS/VCS/vcs/T-2022.06-SP1/etc/uvm/comps/uvm_comps.svh'.
Parsing included file '/home/cad/eda/SYNOPSYS/VCS/vcs/T-2022.06-SP1/etc/uvm/comps/uvm_policies.svh'.
Back to file '/home/cad/eda/SYNOPSYS/VCS/vcs/T-2022.06-SP1/etc/uvm/comps/uvm_comps.svh'.
Parsing included file '/home/cad/eda/SYNOPSYS/VCS/vcs/T-2022.06-SP1/etc/uvm/comps/uvm_in_order_comparator.svh'.
Back to file '/home/cad/eda/SYNOPSYS/VCS/vcs/T-2022.06-SP1/etc/uvm/comps/uvm_comps.svh'.
Parsing included file '/home/cad/eda/SYNOPSYS/VCS/vcs/T-2022.06-SP1/etc/uvm/comps/uvm_algorithmic_comparator.svh'.
Back to file '/home/cad/eda/SYNOPSYS/VCS/vcs/T-2022.06-SP1/etc/uvm/comps/uvm_comps.svh'.
Parsing included file '/home/cad/eda/SYNOPSYS/VCS/vcs/T-2022.06-SP1/etc/uvm/comps/uvm_random_stimulus.svh'.
Back to file '/home/cad/eda/SYNOPSYS/VCS/vcs/T-2022.06-SP1/etc/uvm/comps/uvm_comps.svh'.
Parsing included file '/home/cad/eda/SYNOPSYS/VCS/vcs/T-2022.06-SP1/etc/uvm/comps/uvm_subscriber.svh'.
Back to file '/home/cad/eda/SYNOPSYS/VCS/vcs/T-2022.06-SP1/etc/uvm/comps/uvm_comps.svh'.
Parsing included file '/home/cad/eda/SYNOPSYS/VCS/vcs/T-2022.06-SP1/etc/uvm/comps/uvm_monitor.svh'.
Back to file '/home/cad/eda/SYNOPSYS/VCS/vcs/T-2022.06-SP1/etc/uvm/comps/uvm_comps.svh'.
Parsing included file '/home/cad/eda/SYNOPSYS/VCS/vcs/T-2022.06-SP1/etc/uvm/comps/uvm_driver.svh'.
Back to file '/home/cad/eda/SYNOPSYS/VCS/vcs/T-2022.06-SP1/etc/uvm/comps/uvm_comps.svh'.
Parsing included file '/home/cad/eda/SYNOPSYS/VCS/vcs/T-2022.06-SP1/etc/uvm/comps/uvm_push_driver.svh'.
Back to file '/home/cad/eda/SYNOPSYS/VCS/vcs/T-2022.06-SP1/etc/uvm/comps/uvm_comps.svh'.
Parsing included file '/home/cad/eda/SYNOPSYS/VCS/vcs/T-2022.06-SP1/etc/uvm/comps/uvm_scoreboard.svh'.
Back to file '/home/cad/eda/SYNOPSYS/VCS/vcs/T-2022.06-SP1/etc/uvm/comps/uvm_comps.svh'.
Parsing included file '/home/cad/eda/SYNOPSYS/VCS/vcs/T-2022.06-SP1/etc/uvm/comps/uvm_agent.svh'.
Back to file '/home/cad/eda/SYNOPSYS/VCS/vcs/T-2022.06-SP1/etc/uvm/comps/uvm_comps.svh'.
Parsing included file '/home/cad/eda/SYNOPSYS/VCS/vcs/T-2022.06-SP1/etc/uvm/comps/uvm_env.svh'.
Back to file '/home/cad/eda/SYNOPSYS/VCS/vcs/T-2022.06-SP1/etc/uvm/comps/uvm_comps.svh'.
Parsing included file '/home/cad/eda/SYNOPSYS/VCS/vcs/T-2022.06-SP1/etc/uvm/comps/uvm_test.svh'.
Back to file '/home/cad/eda/SYNOPSYS/VCS/vcs/T-2022.06-SP1/etc/uvm/comps/uvm_comps.svh'.
Back to file '/home/cad/eda/SYNOPSYS/VCS/vcs/T-2022.06-SP1/etc/uvm/uvm_pkg.sv'.
Parsing included file '/home/cad/eda/SYNOPSYS/VCS/vcs/T-2022.06-SP1/etc/uvm/seq/uvm_seq.svh'.
Parsing included file '/home/cad/eda/SYNOPSYS/VCS/vcs/T-2022.06-SP1/etc/uvm/seq/uvm_sequence_item.svh'.
Back to file '/home/cad/eda/SYNOPSYS/VCS/vcs/T-2022.06-SP1/etc/uvm/seq/uvm_seq.svh'.
Parsing included file '/home/cad/eda/SYNOPSYS/VCS/vcs/T-2022.06-SP1/etc/uvm/seq/uvm_sequencer_base.svh'.
Back to file '/home/cad/eda/SYNOPSYS/VCS/vcs/T-2022.06-SP1/etc/uvm/seq/uvm_seq.svh'.
Parsing included file '/home/cad/eda/SYNOPSYS/VCS/vcs/T-2022.06-SP1/etc/uvm/seq/uvm_sequencer_analysis_fifo.svh'.
Back to file '/home/cad/eda/SYNOPSYS/VCS/vcs/T-2022.06-SP1/etc/uvm/seq/uvm_seq.svh'.
Parsing included file '/home/cad/eda/SYNOPSYS/VCS/vcs/T-2022.06-SP1/etc/uvm/seq/uvm_sequencer_param_base.svh'.
Back to file '/home/cad/eda/SYNOPSYS/VCS/vcs/T-2022.06-SP1/etc/uvm/seq/uvm_seq.svh'.
Parsing included file '/home/cad/eda/SYNOPSYS/VCS/vcs/T-2022.06-SP1/etc/uvm/seq/uvm_sequencer.svh'.
Back to file '/home/cad/eda/SYNOPSYS/VCS/vcs/T-2022.06-SP1/etc/uvm/seq/uvm_seq.svh'.
Parsing included file '/home/cad/eda/SYNOPSYS/VCS/vcs/T-2022.06-SP1/etc/uvm/seq/uvm_push_sequencer.svh'.
Back to file '/home/cad/eda/SYNOPSYS/VCS/vcs/T-2022.06-SP1/etc/uvm/seq/uvm_seq.svh'.
Parsing included file '/home/cad/eda/SYNOPSYS/VCS/vcs/T-2022.06-SP1/etc/uvm/seq/uvm_sequence_base.svh'.
Back to file '/home/cad/eda/SYNOPSYS/VCS/vcs/T-2022.06-SP1/etc/uvm/seq/uvm_seq.svh'.
Parsing included file '/home/cad/eda/SYNOPSYS/VCS/vcs/T-2022.06-SP1/etc/uvm/seq/uvm_sequence.svh'.
Back to file '/home/cad/eda/SYNOPSYS/VCS/vcs/T-2022.06-SP1/etc/uvm/seq/uvm_seq.svh'.
Parsing included file '/home/cad/eda/SYNOPSYS/VCS/vcs/T-2022.06-SP1/etc/uvm/seq/uvm_sequence_library.svh'.
Back to file '/home/cad/eda/SYNOPSYS/VCS/vcs/T-2022.06-SP1/etc/uvm/seq/uvm_seq.svh'.
Parsing included file '/home/cad/eda/SYNOPSYS/VCS/vcs/T-2022.06-SP1/etc/uvm/seq/uvm_sequence_builtin.svh'.
Back to file '/home/cad/eda/SYNOPSYS/VCS/vcs/T-2022.06-SP1/etc/uvm/seq/uvm_seq.svh'.
Back to file '/home/cad/eda/SYNOPSYS/VCS/vcs/T-2022.06-SP1/etc/uvm/uvm_pkg.sv'.
Parsing included file '/home/cad/eda/SYNOPSYS/VCS/vcs/T-2022.06-SP1/etc/uvm/tlm2/uvm_tlm2.svh'.
Parsing included file '/home/cad/eda/SYNOPSYS/VCS/vcs/T-2022.06-SP1/etc/uvm/tlm2/uvm_tlm2_defines.svh'.
Back to file '/home/cad/eda/SYNOPSYS/VCS/vcs/T-2022.06-SP1/etc/uvm/tlm2/uvm_tlm2.svh'.
Parsing included file '/home/cad/eda/SYNOPSYS/VCS/vcs/T-2022.06-SP1/etc/uvm/tlm2/uvm_tlm2_time.svh'.
Back to file '/home/cad/eda/SYNOPSYS/VCS/vcs/T-2022.06-SP1/etc/uvm/tlm2/uvm_tlm2.svh'.
Parsing included file '/home/cad/eda/SYNOPSYS/VCS/vcs/T-2022.06-SP1/etc/uvm/tlm2/uvm_tlm2_generic_payload.svh'.
Back to file '/home/cad/eda/SYNOPSYS/VCS/vcs/T-2022.06-SP1/etc/uvm/tlm2/uvm_tlm2.svh'.
Parsing included file '/home/cad/eda/SYNOPSYS/VCS/vcs/T-2022.06-SP1/etc/uvm/tlm2/uvm_tlm2_ifs.svh'.
Back to file '/home/cad/eda/SYNOPSYS/VCS/vcs/T-2022.06-SP1/etc/uvm/tlm2/uvm_tlm2.svh'.
Parsing included file '/home/cad/eda/SYNOPSYS/VCS/vcs/T-2022.06-SP1/etc/uvm/tlm2/uvm_tlm2_imps.svh'.
Back to file '/home/cad/eda/SYNOPSYS/VCS/vcs/T-2022.06-SP1/etc/uvm/tlm2/uvm_tlm2.svh'.
Parsing included file '/home/cad/eda/SYNOPSYS/VCS/vcs/T-2022.06-SP1/etc/uvm/tlm2/uvm_tlm2_ports.svh'.
Back to file '/home/cad/eda/SYNOPSYS/VCS/vcs/T-2022.06-SP1/etc/uvm/tlm2/uvm_tlm2.svh'.
Parsing included file '/home/cad/eda/SYNOPSYS/VCS/vcs/T-2022.06-SP1/etc/uvm/tlm2/uvm_tlm2_exports.svh'.
Back to file '/home/cad/eda/SYNOPSYS/VCS/vcs/T-2022.06-SP1/etc/uvm/tlm2/uvm_tlm2.svh'.
Parsing included file '/home/cad/eda/SYNOPSYS/VCS/vcs/T-2022.06-SP1/etc/uvm/tlm2/uvm_tlm2_sockets_base.svh'.
Back to file '/home/cad/eda/SYNOPSYS/VCS/vcs/T-2022.06-SP1/etc/uvm/tlm2/uvm_tlm2.svh'.
Parsing included file '/home/cad/eda/SYNOPSYS/VCS/vcs/T-2022.06-SP1/etc/uvm/tlm2/uvm_tlm2_sockets.svh'.
Back to file '/home/cad/eda/SYNOPSYS/VCS/vcs/T-2022.06-SP1/etc/uvm/tlm2/uvm_tlm2.svh'.
Back to file '/home/cad/eda/SYNOPSYS/VCS/vcs/T-2022.06-SP1/etc/uvm/uvm_pkg.sv'.
Parsing included file '/home/cad/eda/SYNOPSYS/VCS/vcs/T-2022.06-SP1/etc/uvm/reg/uvm_reg_model.svh'.
Parsing included file '/home/cad/eda/SYNOPSYS/VCS/vcs/T-2022.06-SP1/etc/uvm/reg/uvm_reg_item.svh'.
Back to file '/home/cad/eda/SYNOPSYS/VCS/vcs/T-2022.06-SP1/etc/uvm/reg/uvm_reg_model.svh'.
Parsing included file '/home/cad/eda/SYNOPSYS/VCS/vcs/T-2022.06-SP1/etc/uvm/reg/uvm_reg_adapter.svh'.
Back to file '/home/cad/eda/SYNOPSYS/VCS/vcs/T-2022.06-SP1/etc/uvm/reg/uvm_reg_model.svh'.
Parsing included file '/home/cad/eda/SYNOPSYS/VCS/vcs/T-2022.06-SP1/etc/uvm/reg/uvm_reg_predictor.svh'.
Back to file '/home/cad/eda/SYNOPSYS/VCS/vcs/T-2022.06-SP1/etc/uvm/reg/uvm_reg_model.svh'.
Parsing included file '/home/cad/eda/SYNOPSYS/VCS/vcs/T-2022.06-SP1/etc/uvm/reg/uvm_reg_sequence.svh'.
Back to file '/home/cad/eda/SYNOPSYS/VCS/vcs/T-2022.06-SP1/etc/uvm/reg/uvm_reg_model.svh'.
Parsing included file '/home/cad/eda/SYNOPSYS/VCS/vcs/T-2022.06-SP1/etc/uvm/reg/uvm_reg_cbs.svh'.
Back to file '/home/cad/eda/SYNOPSYS/VCS/vcs/T-2022.06-SP1/etc/uvm/reg/uvm_reg_model.svh'.
Parsing included file '/home/cad/eda/SYNOPSYS/VCS/vcs/T-2022.06-SP1/etc/uvm/reg/uvm_reg_backdoor.svh'.
Back to file '/home/cad/eda/SYNOPSYS/VCS/vcs/T-2022.06-SP1/etc/uvm/reg/uvm_reg_model.svh'.
Parsing included file '/home/cad/eda/SYNOPSYS/VCS/vcs/T-2022.06-SP1/etc/uvm/reg/uvm_reg_field.svh'.
Back to file '/home/cad/eda/SYNOPSYS/VCS/vcs/T-2022.06-SP1/etc/uvm/reg/uvm_reg_model.svh'.
Parsing included file '/home/cad/eda/SYNOPSYS/VCS/vcs/T-2022.06-SP1/etc/uvm/reg/uvm_vreg_field.svh'.
Back to file '/home/cad/eda/SYNOPSYS/VCS/vcs/T-2022.06-SP1/etc/uvm/reg/uvm_reg_model.svh'.
Parsing included file '/home/cad/eda/SYNOPSYS/VCS/vcs/T-2022.06-SP1/etc/uvm/reg/uvm_reg.svh'.
Back to file '/home/cad/eda/SYNOPSYS/VCS/vcs/T-2022.06-SP1/etc/uvm/reg/uvm_reg_model.svh'.
Parsing included file '/home/cad/eda/SYNOPSYS/VCS/vcs/T-2022.06-SP1/etc/uvm/reg/uvm_reg_indirect.svh'.
Back to file '/home/cad/eda/SYNOPSYS/VCS/vcs/T-2022.06-SP1/etc/uvm/reg/uvm_reg_model.svh'.
Parsing included file '/home/cad/eda/SYNOPSYS/VCS/vcs/T-2022.06-SP1/etc/uvm/reg/uvm_reg_fifo.svh'.
Back to file '/home/cad/eda/SYNOPSYS/VCS/vcs/T-2022.06-SP1/etc/uvm/reg/uvm_reg_model.svh'.
Parsing included file '/home/cad/eda/SYNOPSYS/VCS/vcs/T-2022.06-SP1/etc/uvm/reg/uvm_reg_file.svh'.
Back to file '/home/cad/eda/SYNOPSYS/VCS/vcs/T-2022.06-SP1/etc/uvm/reg/uvm_reg_model.svh'.
Parsing included file '/home/cad/eda/SYNOPSYS/VCS/vcs/T-2022.06-SP1/etc/uvm/reg/uvm_mem_mam.svh'.
Back to file '/home/cad/eda/SYNOPSYS/VCS/vcs/T-2022.06-SP1/etc/uvm/reg/uvm_reg_model.svh'.
Parsing included file '/home/cad/eda/SYNOPSYS/VCS/vcs/T-2022.06-SP1/etc/uvm/reg/uvm_vreg.svh'.
Back to file '/home/cad/eda/SYNOPSYS/VCS/vcs/T-2022.06-SP1/etc/uvm/reg/uvm_reg_model.svh'.
Parsing included file '/home/cad/eda/SYNOPSYS/VCS/vcs/T-2022.06-SP1/etc/uvm/reg/uvm_mem.svh'.
Back to file '/home/cad/eda/SYNOPSYS/VCS/vcs/T-2022.06-SP1/etc/uvm/reg/uvm_reg_model.svh'.
Parsing included file '/home/cad/eda/SYNOPSYS/VCS/vcs/T-2022.06-SP1/etc/uvm/reg/uvm_reg_map.svh'.
Back to file '/home/cad/eda/SYNOPSYS/VCS/vcs/T-2022.06-SP1/etc/uvm/reg/uvm_reg_model.svh'.
Parsing included file '/home/cad/eda/SYNOPSYS/VCS/vcs/T-2022.06-SP1/etc/uvm/reg/uvm_reg_block.svh'.
Back to file '/home/cad/eda/SYNOPSYS/VCS/vcs/T-2022.06-SP1/etc/uvm/reg/uvm_reg_model.svh'.
Parsing included file '/home/cad/eda/SYNOPSYS/VCS/vcs/T-2022.06-SP1/etc/uvm/reg/sequences/uvm_reg_hw_reset_seq.svh'.
Back to file '/home/cad/eda/SYNOPSYS/VCS/vcs/T-2022.06-SP1/etc/uvm/reg/uvm_reg_model.svh'.
Parsing included file '/home/cad/eda/SYNOPSYS/VCS/vcs/T-2022.06-SP1/etc/uvm/reg/sequences/uvm_reg_bit_bash_seq.svh'.
Back to file '/home/cad/eda/SYNOPSYS/VCS/vcs/T-2022.06-SP1/etc/uvm/reg/uvm_reg_model.svh'.
Parsing included file '/home/cad/eda/SYNOPSYS/VCS/vcs/T-2022.06-SP1/etc/uvm/reg/sequences/uvm_mem_walk_seq.svh'.
Back to file '/home/cad/eda/SYNOPSYS/VCS/vcs/T-2022.06-SP1/etc/uvm/reg/uvm_reg_model.svh'.
Parsing included file '/home/cad/eda/SYNOPSYS/VCS/vcs/T-2022.06-SP1/etc/uvm/reg/sequences/uvm_mem_access_seq.svh'.
Back to file '/home/cad/eda/SYNOPSYS/VCS/vcs/T-2022.06-SP1/etc/uvm/reg/uvm_reg_model.svh'.
Parsing included file '/home/cad/eda/SYNOPSYS/VCS/vcs/T-2022.06-SP1/etc/uvm/reg/sequences/uvm_reg_access_seq.svh'.
Back to file '/home/cad/eda/SYNOPSYS/VCS/vcs/T-2022.06-SP1/etc/uvm/reg/uvm_reg_model.svh'.
Parsing included file '/home/cad/eda/SYNOPSYS/VCS/vcs/T-2022.06-SP1/etc/uvm/reg/sequences/uvm_reg_mem_shared_access_seq.svh'.
Back to file '/home/cad/eda/SYNOPSYS/VCS/vcs/T-2022.06-SP1/etc/uvm/reg/uvm_reg_model.svh'.
Parsing included file '/home/cad/eda/SYNOPSYS/VCS/vcs/T-2022.06-SP1/etc/uvm/reg/sequences/uvm_reg_mem_built_in_seq.svh'.
Back to file '/home/cad/eda/SYNOPSYS/VCS/vcs/T-2022.06-SP1/etc/uvm/reg/uvm_reg_model.svh'.
Parsing included file '/home/cad/eda/SYNOPSYS/VCS/vcs/T-2022.06-SP1/etc/uvm/reg/sequences/uvm_reg_mem_hdl_paths_seq.svh'.
Back to file '/home/cad/eda/SYNOPSYS/VCS/vcs/T-2022.06-SP1/etc/uvm/reg/uvm_reg_model.svh'.
Parsing included file '/home/cad/eda/SYNOPSYS/VCS/vcs/T-2022.06-SP1/etc/uvm/reg/snps_uvm_reg_bank.svh'.
Back to file '/home/cad/eda/SYNOPSYS/VCS/vcs/T-2022.06-SP1/etc/uvm/reg/uvm_reg_model.svh'.
Back to file '/home/cad/eda/SYNOPSYS/VCS/vcs/T-2022.06-SP1/etc/uvm/uvm_pkg.sv'.
Parsing included file '/home/cad/eda/SYNOPSYS/VCS/vcs/T-2022.06-SP1/etc/uvm/vcs/vcs_uvm_alt.sv'.
Back to file '/home/cad/eda/SYNOPSYS/VCS/vcs/T-2022.06-SP1/etc/uvm/uvm_pkg.sv'.
Parsing design file '/home/cad/eda/SYNOPSYS/VCS/vcs/T-2022.06-SP1/etc/uvm/vcs/uvm_custom_install_vcs_recorder.sv'
Parsing included file '/home/cad/eda/SYNOPSYS/VCS/vcs/T-2022.06-SP1/etc/uvm/vcs/msglog.svh'.
Back to file '/home/cad/eda/SYNOPSYS/VCS/vcs/T-2022.06-SP1/etc/uvm/vcs/uvm_custom_install_vcs_recorder.sv'.
Parsing included file '/home/cad/eda/SYNOPSYS/VCS/vcs/T-2022.06-SP1/etc/uvm/vcs/uvm_msglog_report_server.sv'.
Back to file '/home/cad/eda/SYNOPSYS/VCS/vcs/T-2022.06-SP1/etc/uvm/vcs/uvm_custom_install_vcs_recorder.sv'.
Parsing included file '/home/cad/eda/SYNOPSYS/VCS/vcs/T-2022.06-SP1/etc/uvm/vcs/uvm_vcs_recorder.svh'.
Back to file '/home/cad/eda/SYNOPSYS/VCS/vcs/T-2022.06-SP1/etc/uvm/vcs/uvm_custom_install_vcs_recorder.sv'.
Parsing included file '/home/cad/eda/SYNOPSYS/VCS/vcs/T-2022.06-SP1/etc/uvm/vcs/uvm_vcs_record_interface.sv'.
Back to file '/home/cad/eda/SYNOPSYS/VCS/vcs/T-2022.06-SP1/etc/uvm/vcs/uvm_custom_install_vcs_recorder.sv'.
Parsing design file '/home/cad/eda/SYNOPSYS/VCS/vcs/T-2022.06-SP1/etc/uvm/verdi/uvm_custom_install_verdi_recorder.sv'
Parsing included file '/home/cad/eda/SYNOPSYS/VCS/vcs/T-2022.06-SP1/etc/uvm/uvm_macros.svh'.
Back to file '/home/cad/eda/SYNOPSYS/VCS/vcs/T-2022.06-SP1/etc/uvm/verdi/uvm_custom_install_verdi_recorder.sv'.
Parsing included file '/home/cad/eda/SYNOPSYS/VCS/vcs/T-2022.06-SP1/etc/uvm/verdi/uvm_verdi_recorder.svh'.
Parsing included file '/home/cad/eda/SYNOPSYS/VCS/vcs/T-2022.06-SP1/etc/uvm/verdi/uvm_verdi_pli_base.svh'.
Back to file '/home/cad/eda/SYNOPSYS/VCS/vcs/T-2022.06-SP1/etc/uvm/verdi/uvm_verdi_recorder.svh'.
Back to file '/home/cad/eda/SYNOPSYS/VCS/vcs/T-2022.06-SP1/etc/uvm/verdi/uvm_custom_install_verdi_recorder.sv'.
Parsing included file '/home/cad/eda/SYNOPSYS/VCS/vcs/T-2022.06-SP1/etc/uvm/verdi/uvm_verdi_reg_map_recording.sv'.
Back to file '/home/cad/eda/SYNOPSYS/VCS/vcs/T-2022.06-SP1/etc/uvm/verdi/uvm_custom_install_verdi_recorder.sv'.
Parsing included file '/home/cad/eda/SYNOPSYS/VCS/vcs/T-2022.06-SP1/etc/uvm/verdi/uvm_verdi_message_catcher.svh'.
Parsing included file '/home/cad/eda/SYNOPSYS/VCS/vcs/T-2022.06-SP1/etc/uvm/verdi/uvm_verdi_pli_base.svh'.
Back to file '/home/cad/eda/SYNOPSYS/VCS/vcs/T-2022.06-SP1/etc/uvm/verdi/uvm_verdi_message_catcher.svh'.
Back to file '/home/cad/eda/SYNOPSYS/VCS/vcs/T-2022.06-SP1/etc/uvm/verdi/uvm_custom_install_verdi_recorder.sv'.
Parsing included file '/home/cad/eda/SYNOPSYS/VCS/vcs/T-2022.06-SP1/etc/uvm/verdi/./dpi/uvm_verdi_dpi.svh'.
Back to file '/home/cad/eda/SYNOPSYS/VCS/vcs/T-2022.06-SP1/etc/uvm/verdi/uvm_custom_install_verdi_recorder.sv'.
Parsing included file '/home/cad/eda/SYNOPSYS/VCS/vcs/T-2022.06-SP1/etc/uvm/verdi/uvm_verdi_reg_recording.sv'.
Back to file '/home/cad/eda/SYNOPSYS/VCS/vcs/T-2022.06-SP1/etc/uvm/verdi/uvm_custom_install_verdi_recorder.sv'.
Parsing included file '/home/cad/eda/SYNOPSYS/VERDI_2022/verdi/T-2022.06-SP1/share/PLI/VCS/include/verdi_trans_recorder_dpi.svh'.
Back to file '/home/cad/eda/SYNOPSYS/VCS/vcs/T-2022.06-SP1/etc/uvm/verdi/uvm_custom_install_verdi_recorder.sv'.
Parsing included file '/home/cad/eda/SYNOPSYS/VCS/vcs/T-2022.06-SP1/etc/uvm/verdi/uvm_verdi_pli.svh'.
Back to file '/home/cad/eda/SYNOPSYS/VCS/vcs/T-2022.06-SP1/etc/uvm/verdi/uvm_custom_install_verdi_recorder.sv'.
Parsing design file '/home/cad/eda/SYNOPSYS/VCS/vcs/T-2022.06-SP1/etc/uvm/verdi/uvm_custom_install_verdi_recorder.sv'
Parsing design file '../rtl/ahb_apb_top.v'
Parsing included file 'definitions.v'.
Back to file '../rtl/ahb_apb_top.v'.
Parsing design file '../rtl/ahb_slave.v'
Parsing included file 'definitions.v'.
Back to file '../rtl/ahb_slave.v'.
Parsing design file '../rtl/apb_controller.v'
Parsing included file 'definitions.v'.
Back to file '../rtl/apb_controller.v'.
Parsing design file '../rtl/apb_interface.v'
Parsing included file 'definitions.v'.
Back to file '../rtl/apb_interface.v'.
Parsing design file '../rtl/bridge_if.sv'
Parsing design file '../tb/pkg.sv'
Parsing included file '/home/cad/eda/SYNOPSYS/VCS/vcs/T-2022.06-SP1/etc/uvm/uvm_macros.svh'.
Back to file '../tb/pkg.sv'.
Parsing included file '../source/ahb_agt_config.sv'.
Back to file '../tb/pkg.sv'.
Parsing included file '../destination/apb_agt_config.sv'.
Back to file '../tb/pkg.sv'.
Parsing included file '../tb/env_config.sv'.
Back to file '../tb/pkg.sv'.
Parsing included file '../source/ahb_xtn.sv'.
Back to file '../tb/pkg.sv'.
Parsing included file '../destination/apb_xtn.sv'.
Back to file '../tb/pkg.sv'.
Parsing included file '../source/ahb_driver.sv'.
Back to file '../tb/pkg.sv'.
Parsing included file '../source/ahb_monitor.sv'.
Back to file '../tb/pkg.sv'.
Parsing included file '../source/ahb_sequencer.sv'.
Back to file '../tb/pkg.sv'.
Parsing included file '../source/ahb_agent.sv'.
Back to file '../tb/pkg.sv'.
Parsing included file '../source/ahb_agt_top.sv'.
Back to file '../tb/pkg.sv'.
Parsing included file '../source/ahb_seqs.sv'.
Back to file '../tb/pkg.sv'.
Parsing included file '../destination/apb_driver.sv'.
Back to file '../tb/pkg.sv'.
Parsing included file '../destination/apb_monitor.sv'.
Back to file '../tb/pkg.sv'.
Parsing included file '../destination/apb_sequencer.sv'.
Back to file '../tb/pkg.sv'.
Parsing included file '../destination/apb_agent.sv'.
Back to file '../tb/pkg.sv'.
Parsing included file '../destination/apb_agt_top.sv'.
Back to file '../tb/pkg.sv'.
Parsing included file '../destination/apb_seqs.sv'.
Back to file '../tb/pkg.sv'.
Parsing included file '../tb/v_sequencer.sv'.
Back to file '../tb/pkg.sv'.
Parsing included file '../tb/sb.sv'.
Back to file '../tb/pkg.sv'.
Parsing included file '../tb/env.sv'.
Back to file '../tb/pkg.sv'.
Parsing included file '../tb/test.sv'.
Back to file '../tb/pkg.sv'.
Parsing design file '../tb/top.sv'
Top Level Modules:
       uvm_custom_install_recording
       uvm_custom_install_verdi_recording
       top
TimeScale is 1 ns / 1 ps
Starting vcs inline pass...

11 modules and 0 UDP read.
recompiling package vcs_paramclassrepository
recompiling package _vcs_DPI_package
recompiling package uvm_pkg
recompiling package _vcs_msglog
recompiling module uvm_custom_install_recording
recompiling module uvm_custom_install_verdi_recording
recompiling module rtl_top
recompiling module apb
recompiling module bridge_if
recompiling package pkg
recompiling module top
All of 11 modules done
make[1]: Entering directory '/home1/BPRN11/IRUdumula/VLSI_RN/Projects/AHB_to_APB_Bridge_Verification/sim/csrc' \

rm -f _cuarc*.so _csrc*.so pre_vcsobj_*.so share_vcsobj_*.so
g++ -w  -pipe -DVCS -DUVM_DPI_DO_TYPE_CHECK -fPIC -O -I/home/cad/eda/SYNOPSYS/VCS/vcs/T-2022.06-SP1/include \
-c /home/cad/eda/SYNOPSYS/VCS/vcs/T-2022.06-SP1/etc/uvm/dpi/uvm_dpi.cc
g++ -w  -pipe -DVCS -DUVM_DPI_DO_TYPE_CHECK -fPIC -O -I/home/cad/eda/SYNOPSYS/VCS/vcs/T-2022.06-SP1/include \
-c /home/cad/eda/SYNOPSYS/VCS/vcs/T-2022.06-SP1/etc/uvm/verdi/dpi/uvm_verdi_dpi.cpp \

if [ -x ../simv ]; then chmod a-x ../simv; fi
g++  -o ../simv      -rdynamic  -Wl,-rpath='$ORIGIN'/simv.daidir -Wl,-rpath=./simv.daidir \
-Wl,-rpath=/home/cad/eda/SYNOPSYS/VCS/vcs/T-2022.06-SP1/linux64/lib -L/home/cad/eda/SYNOPSYS/VCS/vcs/T-2022.06-SP1/linux64/lib \
-Wl,-rpath-link=./  /usr/lib64/libnuma.so.1 uvm_dpi.o uvm_verdi_dpi.o   objs/amcQw_d.o \
_485645_archive_1.so  SIM_l.o      rmapats_mop.o rmapats.o rmar.o rmar_nd.o  rmar_llvm_0_1.o \
rmar_llvm_0_0.o            -lvirsim -lerrorinf -lsnpsmalloc -lvfs /home/cad/eda/SYNOPSYS/VERDI_2022/verdi/T-2022.06-SP1/share/PLI/VCS/LINUX64/pli.a \
-lvcsnew -lsimprofile -luclinative /home/cad/eda/SYNOPSYS/VCS/vcs/T-2022.06-SP1/linux64/lib/vcs_tls.o \
-Wl,-whole-archive  -lvcsucli    -Wl,-no-whole-archive       ./../simv.daidir/vc_hdrs.o \
_vcs_pli_stub_.o   /home/cad/eda/SYNOPSYS/VCS/vcs/T-2022.06-SP1/linux64/lib/vcs_save_restore_new.o \
/home/cad/eda/SYNOPSYS/VERDI_2022/verdi/T-2022.06-SP1/share/PLI/VCS/LINUX64/pli.a \
-ldl -lm  -lc -lpthread -ldl 
../simv up to date
make[1]: Leaving directory '/home1/BPRN11/IRUdumula/VLSI_RN/Projects/AHB_to_APB_Bridge_Verification/sim/csrc' \

CPU time: 11.402 seconds to compile + .338 seconds to elab + .775 seconds to link
Verdi KDB elaboration done and the database successfully generated: 0 error(s), 0 warning(s)
Command: /home1/BPRN11/IRUdumula/VLSI_RN/Projects/AHB_to_APB_Bridge_Verification/sim/./simv -a vcs.log +fsdbfile+wave4.fsdb -cm_dir ./mem_cov4 +ntb_random_seed_automatic +UVM_TESTNAME=wrap_test
Chronologic VCS simulator copyright 1991-2022
Contains Synopsys proprietary information.
Compiler version T-2022.06-SP1_Full64; Runtime version T-2022.06-SP1_Full64;  May  4 14:27 2025
NOTE: automatic random seed used: 993502874
----------------------------------------------------------------
UVM-1.1d.Synopsys
(C) 2007-2013 Mentor Graphics Corporation
(C) 2007-2013 Cadence Design Systems, Inc.
(C) 2006-2013 Synopsys, Inc.
(C) 2011-2013 Cypress Semiconductor Corp.
----------------------------------------------------------------

  ***********       IMPORTANT RELEASE NOTES         ************

  You are using a version of the UVM library that has been compiled
  with `UVM_NO_DEPRECATED undefined.
  See http://www.eda.org/svdb/view.php?id=3313 for more details.

  You are using a version of the UVM library that has been compiled
  with `UVM_OBJECT_MUST_HAVE_CONSTRUCTOR undefined.
  See http://www.eda.org/svdb/view.php?id=3770 for more details.

      (Specify +UVM_NO_RELNOTES to turn off this notice)

*Verdi* Loading libsscore_vcs202206.so
FSDB Dumper for VCS, Release Verdi_T-2022.06-SP1, Linux x86_64/64bit, 08/28/2022
(C) 1996 - 2022 by Synopsys, Inc.
*Verdi* : Create FSDB file 'wave4.fsdb'
*Verdi* : Begin traversing the scope (top), layer (0).
*Verdi* : End of traversing.
UVM_INFO @ 0: reporter [RNTST] Running test wrap_test...
UVM_INFO @ 0: reporter [UVMTOP] UVM testbench topology:
--------------------------------------------------------------------
Name                         Type                        Size  Value
--------------------------------------------------------------------
uvm_test_top                 wrap_test                   -     @464 
  env_h                      env                         -     @485 
    ahb_top                  ahb_agt_top                 -     @498 
      ahb                    ahb_agent                   -     @755 
        drvh                 ahb_driver                  -     @785 
          rsp_port           uvm_analysis_port           -     @802 
          seq_item_port      uvm_seq_item_pull_port      -     @793 
        monh                 ahb_monitor                 -     @768 
          ahb_monitor_port   uvm_analysis_port           -     @776 
        seqr                 ahb_sequencer               -     @811 
          rsp_export         uvm_analysis_export         -     @819 
          seq_item_export    uvm_seq_item_pull_imp       -     @925 
          arbitration_queue  array                       0     -    
          lock_queue         array                       0     -    
          num_last_reqs      integral                    32    'd1  
          num_last_rsps      integral                    32    'd1  
    apb_top                  apb_agt_top                 -     @510 
      apb                    apb_agent                   -     @941 
        drvh                 apb_driver                  -     @980 
          rsp_port           uvm_analysis_port           -     @997 
          seq_item_port      uvm_seq_item_pull_port      -     @988 
        monh                 apb_monitor                 -     @954 
          ahb_monitor_port   uvm_analysis_port           -     @962 
          apb_monitor_port   uvm_analysis_port           -     @971 
        seqr                 apb_sequencer               -     @1006
          rsp_export         uvm_analysis_export         -     @1014
          seq_item_export    uvm_seq_item_pull_imp       -     @1120
          arbitration_queue  array                       0     -    
          lock_queue         array                       0     -    
          num_last_reqs      integral                    32    'd1  
          num_last_rsps      integral                    32    'd1  
    sb_h                     sb                          -     @518 
      ahb_fifo               uvm_tlm_analysis_fifo #(T)  -     @526 
        analysis_export      uvm_analysis_imp            -     @570 
        get_ap               uvm_analysis_port           -     @561 
        get_peek_export      uvm_get_peek_imp            -     @543 
        put_ap               uvm_analysis_port           -     @552 
        put_export           uvm_put_imp                 -     @534 
      apb_fifo               uvm_tlm_analysis_fifo #(T)  -     @579 
        analysis_export      uvm_analysis_imp            -     @623 
        get_ap               uvm_analysis_port           -     @614 
        get_peek_export      uvm_get_peek_imp            -     @596 
        put_ap               uvm_analysis_port           -     @605 
        put_export           uvm_put_imp                 -     @587 
    v_seqr                   v_sequencer                 -     @632 
      rsp_export             uvm_analysis_export         -     @640 
      seq_item_export        uvm_seq_item_pull_imp       -     @746 
      arbitration_queue      array                       0     -    
      lock_queue             array                       0     -    
      num_last_reqs          integral                    32    'd1  
      num_last_rsps          integral                    32    'd1  
--------------------------------------------------------------------

UVM_INFO ../destination/apb_driver.sv(64) @ 0: uvm_test_top.env_h.apb_top.apb.drvh [APB Driver] Printing from APB Driver 
 --------------------------------
Name       Type      Size  Value
--------------------------------
xtn        apb_xtn   -     @1130
  Penable  integral  1     'h0  
  Pwrite   integral  1     'h0  
  Paddr    integral  32    'h0  
  Pwdata   integral  32    'h0  
  Prdata   integral  32    'h0  
  Pselx    integral  4     'h0  
--------------------------------

UVM_INFO ../source/ahb_seqs.sv(131) @ 15000: uvm_test_top.env_h.ahb_top.ahb.seqr@@seqs [SOURCE_SEQUENCE - WRAPPING TRANSFER] Randomized data generated
UVM_INFO ../source/ahb_driver.sv(72) @ 25000: uvm_test_top.env_h.ahb_top.ahb.drvh [AHB DRIVER] Printing from AHB Driver 
 ------------------------------------
Name      Type      Size  Value     
------------------------------------
req       ahb_xtn   -     @1157     
  Haddr   integral  32    'h8c0000c4
  Hwdata  integral  32    'h9b1317a5
  Hsize   integral  3     'h2       
  Htrans  integral  2     'h2       
  Hwrite  integral  1     'h0       
  Hrdata  integral  32    'h0       
------------------------------------

Starting address = 8c0000c0
Boundary address = 8c0000e0
UVM_INFO ../destination/apb_driver.sv(64) @ 35000: uvm_test_top.env_h.apb_top.apb.drvh [APB Driver] Printing from APB Driver 
 --------------------------------
Name       Type      Size  Value
--------------------------------
xtn        apb_xtn   -     @1130
  Penable  integral  1     'h0  
  Pwrite   integral  1     'h0  
  Paddr    integral  32    'h0  
  Pwdata   integral  32    'h0  
  Prdata   integral  32    'h0  
  Pselx    integral  4     'h0  
--------------------------------

UVM_INFO ../source/ahb_monitor.sv(69) @ 45000: uvm_test_top.env_h.ahb_top.ahb.monh [AHB MONITOR] Printing from AHB MONITOR 
 ------------------------------------
Name      Type      Size  Value     
------------------------------------
xtn       ahb_xtn   -     @1233     
  Haddr   integral  32    'h8c0000c4
  Hwdata  integral  32    'h0       
  Hsize   integral  3     'h2       
  Htrans  integral  2     'h2       
  Hwrite  integral  1     'h0       
  Hrdata  integral  32    'h12153524
------------------------------------

UVM_INFO ../destination/apb_monitor.sv(53) @ 45000: uvm_test_top.env_h.apb_top.apb.monh [APB Monitor] Printing from APB Monitor 
 -------------------------------------
Name       Type      Size  Value     
-------------------------------------
xtn        apb_xtn   -     @1148     
  Penable  integral  1     'h1       
  Pwrite   integral  1     'h0       
  Paddr    integral  32    'h8c0000c4
  Pwdata   integral  32    'h0       
  Prdata   integral  32    'h12153524
  Pselx    integral  4     'h8       
-------------------------------------

UVM_INFO ../source/ahb_driver.sv(72) @ 45000: uvm_test_top.env_h.ahb_top.ahb.drvh [AHB DRIVER] Printing from AHB Driver 
 ------------------------------------
Name      Type      Size  Value     
------------------------------------
req       ahb_xtn   -     @1157     
  Haddr   integral  32    'h8c0000c8
  Hwdata  integral  32    'h2726fda 
  Hsize   integral  3     'h2       
  Htrans  integral  2     'h3       
  Hwrite  integral  1     'h0       
  Hrdata  integral  32    'h0       
------------------------------------

------------------------------------
Name      Type      Size  Value     
------------------------------------
xtn       ahb_xtn   -     @1233     
  Haddr   integral  32    'h8c0000c4
  Hwdata  integral  32    'h0       
  Hsize   integral  3     'h2       
  Htrans  integral  2     'h2       
  Hwrite  integral  1     'h0       
  Hrdata  integral  32    'h12153524
------------------------------------
UVM_INFO ../destination/apb_driver.sv(64) @ 55000: uvm_test_top.env_h.apb_top.apb.drvh [APB Driver] Printing from APB Driver 
 -------------------------------------
Name       Type      Size  Value     
-------------------------------------
xtn        apb_xtn   -     @1130     
  Penable  integral  1     'h0       
  Pwrite   integral  1     'h0       
  Paddr    integral  32    'h0       
  Pwdata   integral  32    'h0       
  Prdata   integral  32    'h12153524
  Pselx    integral  4     'h0       
-------------------------------------

-------------------------------------
Name       Type      Size  Value     
-------------------------------------
xtn        apb_xtn   -     @1148     
  Penable  integral  1     'h1       
  Pwrite   integral  1     'h0       
  Paddr    integral  32    'h8c0000c4
  Pwdata   integral  32    'h0       
  Prdata   integral  32    'h12153524
  Pselx    integral  4     'h8       
-------------------------------------
Address Compared Successfully
Data Compared Successfully
UVM_INFO ../source/ahb_monitor.sv(69) @ 65000: uvm_test_top.env_h.ahb_top.ahb.monh [AHB MONITOR] Printing from AHB MONITOR 
 ------------------------------------
Name      Type      Size  Value     
------------------------------------
xtn       ahb_xtn   -     @1238     
  Haddr   integral  32    'h8c0000c8
  Hwdata  integral  32    'h0       
  Hsize   integral  3     'h2       
  Htrans  integral  2     'h3       
  Hwrite  integral  1     'h0       
  Hrdata  integral  32    'hc0895e81
------------------------------------

UVM_INFO ../destination/apb_monitor.sv(53) @ 65000: uvm_test_top.env_h.apb_top.apb.monh [APB Monitor] Printing from APB Monitor 
 -------------------------------------
Name       Type      Size  Value     
-------------------------------------
xtn        apb_xtn   -     @1242     
  Penable  integral  1     'h1       
  Pwrite   integral  1     'h0       
  Paddr    integral  32    'h8c0000c8
  Pwdata   integral  32    'h0       
  Prdata   integral  32    'hc0895e81
  Pselx    integral  4     'h8       
-------------------------------------

UVM_INFO ../source/ahb_driver.sv(72) @ 65000: uvm_test_top.env_h.ahb_top.ahb.drvh [AHB DRIVER] Printing from AHB Driver 
 ------------------------------------
Name      Type      Size  Value     
------------------------------------
req       ahb_xtn   -     @1157     
  Haddr   integral  32    'h8c0000cc
  Hwdata  integral  32    'hcb37ccac
  Hsize   integral  3     'h2       
  Htrans  integral  2     'h3       
  Hwrite  integral  1     'h0       
  Hrdata  integral  32    'h0       
------------------------------------

------------------------------------
Name      Type      Size  Value     
------------------------------------
xtn       ahb_xtn   -     @1238     
  Haddr   integral  32    'h8c0000c8
  Hwdata  integral  32    'h0       
  Hsize   integral  3     'h2       
  Htrans  integral  2     'h3       
  Hwrite  integral  1     'h0       
  Hrdata  integral  32    'hc0895e81
------------------------------------
UVM_INFO ../destination/apb_driver.sv(64) @ 75000: uvm_test_top.env_h.apb_top.apb.drvh [APB Driver] Printing from APB Driver 
 -------------------------------------
Name       Type      Size  Value     
-------------------------------------
xtn        apb_xtn   -     @1130     
  Penable  integral  1     'h0       
  Pwrite   integral  1     'h0       
  Paddr    integral  32    'h0       
  Pwdata   integral  32    'h0       
  Prdata   integral  32    'hc0895e81
  Pselx    integral  4     'h0       
-------------------------------------

-------------------------------------
Name       Type      Size  Value     
-------------------------------------
xtn        apb_xtn   -     @1242     
  Penable  integral  1     'h1       
  Pwrite   integral  1     'h0       
  Paddr    integral  32    'h8c0000c8
  Pwdata   integral  32    'h0       
  Prdata   integral  32    'hc0895e81
  Pselx    integral  4     'h8       
-------------------------------------
Address Compared Successfully
Data Compared Successfully
UVM_INFO ../source/ahb_monitor.sv(69) @ 85000: uvm_test_top.env_h.ahb_top.ahb.monh [AHB MONITOR] Printing from AHB MONITOR 
 ------------------------------------
Name      Type      Size  Value     
------------------------------------
xtn       ahb_xtn   -     @1246     
  Haddr   integral  32    'h8c0000cc
  Hwdata  integral  32    'h0       
  Hsize   integral  3     'h2       
  Htrans  integral  2     'h3       
  Hwrite  integral  1     'h0       
  Hrdata  integral  32    'h8484d609
------------------------------------

UVM_INFO ../destination/apb_monitor.sv(53) @ 85000: uvm_test_top.env_h.apb_top.apb.monh [APB Monitor] Printing from APB Monitor 
 -------------------------------------
Name       Type      Size  Value     
-------------------------------------
xtn        apb_xtn   -     @1250     
  Penable  integral  1     'h1       
  Pwrite   integral  1     'h0       
  Paddr    integral  32    'h8c0000cc
  Pwdata   integral  32    'h0       
  Prdata   integral  32    'h8484d609
  Pselx    integral  4     'h8       
-------------------------------------

UVM_INFO ../source/ahb_driver.sv(72) @ 85000: uvm_test_top.env_h.ahb_top.ahb.drvh [AHB DRIVER] Printing from AHB Driver 
 ------------------------------------
Name      Type      Size  Value     
------------------------------------
req       ahb_xtn   -     @1157     
  Haddr   integral  32    'h8c0000d0
  Hwdata  integral  32    'h12639c50
  Hsize   integral  3     'h2       
  Htrans  integral  2     'h3       
  Hwrite  integral  1     'h0       
  Hrdata  integral  32    'h0       
------------------------------------

------------------------------------
Name      Type      Size  Value     
------------------------------------
xtn       ahb_xtn   -     @1246     
  Haddr   integral  32    'h8c0000cc
  Hwdata  integral  32    'h0       
  Hsize   integral  3     'h2       
  Htrans  integral  2     'h3       
  Hwrite  integral  1     'h0       
  Hrdata  integral  32    'h8484d609
------------------------------------
UVM_INFO ../destination/apb_driver.sv(64) @ 95000: uvm_test_top.env_h.apb_top.apb.drvh [APB Driver] Printing from APB Driver 
 -------------------------------------
Name       Type      Size  Value     
-------------------------------------
xtn        apb_xtn   -     @1130     
  Penable  integral  1     'h0       
  Pwrite   integral  1     'h0       
  Paddr    integral  32    'h0       
  Pwdata   integral  32    'h0       
  Prdata   integral  32    'h8484d609
  Pselx    integral  4     'h0       
-------------------------------------

-------------------------------------
Name       Type      Size  Value     
-------------------------------------
xtn        apb_xtn   -     @1250     
  Penable  integral  1     'h1       
  Pwrite   integral  1     'h0       
  Paddr    integral  32    'h8c0000cc
  Pwdata   integral  32    'h0       
  Prdata   integral  32    'h8484d609
  Pselx    integral  4     'h8       
-------------------------------------
Address Compared Successfully
Data Compared Successfully
UVM_INFO ../source/ahb_monitor.sv(69) @ 105000: uvm_test_top.env_h.ahb_top.ahb.monh [AHB MONITOR] Printing from AHB MONITOR 
 ------------------------------------
Name      Type      Size  Value     
------------------------------------
xtn       ahb_xtn   -     @1254     
  Haddr   integral  32    'h8c0000d0
  Hwdata  integral  32    'h0       
  Hsize   integral  3     'h2       
  Htrans  integral  2     'h3       
  Hwrite  integral  1     'h0       
  Hrdata  integral  32    'hb1f05663
------------------------------------

UVM_INFO ../destination/apb_monitor.sv(53) @ 105000: uvm_test_top.env_h.apb_top.apb.monh [APB Monitor] Printing from APB Monitor 
 -------------------------------------
Name       Type      Size  Value     
-------------------------------------
xtn        apb_xtn   -     @1258     
  Penable  integral  1     'h1       
  Pwrite   integral  1     'h0       
  Paddr    integral  32    'h8c0000d0
  Pwdata   integral  32    'h0       
  Prdata   integral  32    'hb1f05663
  Pselx    integral  4     'h8       
-------------------------------------

UVM_INFO ../source/ahb_driver.sv(72) @ 105000: uvm_test_top.env_h.ahb_top.ahb.drvh [AHB DRIVER] Printing from AHB Driver 
 ------------------------------------
Name      Type      Size  Value     
------------------------------------
req       ahb_xtn   -     @1157     
  Haddr   integral  32    'h8c0000d4
  Hwdata  integral  32    'he328cd54
  Hsize   integral  3     'h2       
  Htrans  integral  2     'h3       
  Hwrite  integral  1     'h0       
  Hrdata  integral  32    'h0       
------------------------------------

------------------------------------
Name      Type      Size  Value     
------------------------------------
xtn       ahb_xtn   -     @1254     
  Haddr   integral  32    'h8c0000d0
  Hwdata  integral  32    'h0       
  Hsize   integral  3     'h2       
  Htrans  integral  2     'h3       
  Hwrite  integral  1     'h0       
  Hrdata  integral  32    'hb1f05663
------------------------------------
UVM_INFO ../destination/apb_driver.sv(64) @ 115000: uvm_test_top.env_h.apb_top.apb.drvh [APB Driver] Printing from APB Driver 
 -------------------------------------
Name       Type      Size  Value     
-------------------------------------
xtn        apb_xtn   -     @1130     
  Penable  integral  1     'h0       
  Pwrite   integral  1     'h0       
  Paddr    integral  32    'h0       
  Pwdata   integral  32    'h0       
  Prdata   integral  32    'hb1f05663
  Pselx    integral  4     'h0       
-------------------------------------

-------------------------------------
Name       Type      Size  Value     
-------------------------------------
xtn        apb_xtn   -     @1258     
  Penable  integral  1     'h1       
  Pwrite   integral  1     'h0       
  Paddr    integral  32    'h8c0000d0
  Pwdata   integral  32    'h0       
  Prdata   integral  32    'hb1f05663
  Pselx    integral  4     'h8       
-------------------------------------
Address Compared Successfully
Data Compared Successfully
UVM_INFO ../source/ahb_monitor.sv(69) @ 125000: uvm_test_top.env_h.ahb_top.ahb.monh [AHB MONITOR] Printing from AHB MONITOR 
 ------------------------------------
Name      Type      Size  Value     
------------------------------------
xtn       ahb_xtn   -     @1262     
  Haddr   integral  32    'h8c0000d4
  Hwdata  integral  32    'h0       
  Hsize   integral  3     'h2       
  Htrans  integral  2     'h3       
  Hwrite  integral  1     'h0       
  Hrdata  integral  32    'h6b97b0d 
------------------------------------

UVM_INFO ../destination/apb_monitor.sv(53) @ 125000: uvm_test_top.env_h.apb_top.apb.monh [APB Monitor] Printing from APB Monitor 
 -------------------------------------
Name       Type      Size  Value     
-------------------------------------
xtn        apb_xtn   -     @1266     
  Penable  integral  1     'h1       
  Pwrite   integral  1     'h0       
  Paddr    integral  32    'h8c0000d4
  Pwdata   integral  32    'h0       
  Prdata   integral  32    'h6b97b0d 
  Pselx    integral  4     'h8       
-------------------------------------

UVM_INFO ../source/ahb_driver.sv(72) @ 125000: uvm_test_top.env_h.ahb_top.ahb.drvh [AHB DRIVER] Printing from AHB Driver 
 ------------------------------------
Name      Type      Size  Value     
------------------------------------
req       ahb_xtn   -     @1157     
  Haddr   integral  32    'h8c0000d8
  Hwdata  integral  32    'h2804f71b
  Hsize   integral  3     'h2       
  Htrans  integral  2     'h3       
  Hwrite  integral  1     'h0       
  Hrdata  integral  32    'h0       
------------------------------------

------------------------------------
Name      Type      Size  Value     
------------------------------------
xtn       ahb_xtn   -     @1262     
  Haddr   integral  32    'h8c0000d4
  Hwdata  integral  32    'h0       
  Hsize   integral  3     'h2       
  Htrans  integral  2     'h3       
  Hwrite  integral  1     'h0       
  Hrdata  integral  32    'h6b97b0d 
------------------------------------
UVM_INFO ../destination/apb_driver.sv(64) @ 135000: uvm_test_top.env_h.apb_top.apb.drvh [APB Driver] Printing from APB Driver 
 ------------------------------------
Name       Type      Size  Value    
------------------------------------
xtn        apb_xtn   -     @1130    
  Penable  integral  1     'h0      
  Pwrite   integral  1     'h0      
  Paddr    integral  32    'h0      
  Pwdata   integral  32    'h0      
  Prdata   integral  32    'h6b97b0d
  Pselx    integral  4     'h0      
------------------------------------

-------------------------------------
Name       Type      Size  Value     
-------------------------------------
xtn        apb_xtn   -     @1266     
  Penable  integral  1     'h1       
  Pwrite   integral  1     'h0       
  Paddr    integral  32    'h8c0000d4
  Pwdata   integral  32    'h0       
  Prdata   integral  32    'h6b97b0d 
  Pselx    integral  4     'h8       
-------------------------------------
Address Compared Successfully
Data Compared Successfully
UVM_INFO ../source/ahb_monitor.sv(69) @ 145000: uvm_test_top.env_h.ahb_top.ahb.monh [AHB MONITOR] Printing from AHB MONITOR 
 ------------------------------------
Name      Type      Size  Value     
------------------------------------
xtn       ahb_xtn   -     @1270     
  Haddr   integral  32    'h8c0000d8
  Hwdata  integral  32    'h0       
  Hsize   integral  3     'h2       
  Htrans  integral  2     'h3       
  Hwrite  integral  1     'h0       
  Hrdata  integral  32    'h46df998d
------------------------------------

UVM_INFO ../destination/apb_monitor.sv(53) @ 145000: uvm_test_top.env_h.apb_top.apb.monh [APB Monitor] Printing from APB Monitor 
 -------------------------------------
Name       Type      Size  Value     
-------------------------------------
xtn        apb_xtn   -     @1274     
  Penable  integral  1     'h1       
  Pwrite   integral  1     'h0       
  Paddr    integral  32    'h8c0000d8
  Pwdata   integral  32    'h0       
  Prdata   integral  32    'h46df998d
  Pselx    integral  4     'h8       
-------------------------------------

UVM_INFO ../source/ahb_driver.sv(72) @ 145000: uvm_test_top.env_h.ahb_top.ahb.drvh [AHB DRIVER] Printing from AHB Driver 
 ------------------------------------
Name      Type      Size  Value     
------------------------------------
req       ahb_xtn   -     @1157     
  Haddr   integral  32    'h8c0000dc
  Hwdata  integral  32    'haf2e6cab
  Hsize   integral  3     'h2       
  Htrans  integral  2     'h3       
  Hwrite  integral  1     'h0       
  Hrdata  integral  32    'h0       
------------------------------------

------------------------------------
Name      Type      Size  Value     
------------------------------------
xtn       ahb_xtn   -     @1270     
  Haddr   integral  32    'h8c0000d8
  Hwdata  integral  32    'h0       
  Hsize   integral  3     'h2       
  Htrans  integral  2     'h3       
  Hwrite  integral  1     'h0       
  Hrdata  integral  32    'h46df998d
------------------------------------
UVM_INFO ../destination/apb_driver.sv(64) @ 155000: uvm_test_top.env_h.apb_top.apb.drvh [APB Driver] Printing from APB Driver 
 -------------------------------------
Name       Type      Size  Value     
-------------------------------------
xtn        apb_xtn   -     @1130     
  Penable  integral  1     'h0       
  Pwrite   integral  1     'h0       
  Paddr    integral  32    'h0       
  Pwdata   integral  32    'h0       
  Prdata   integral  32    'h46df998d
  Pselx    integral  4     'h0       
-------------------------------------

-------------------------------------
Name       Type      Size  Value     
-------------------------------------
xtn        apb_xtn   -     @1274     
  Penable  integral  1     'h1       
  Pwrite   integral  1     'h0       
  Paddr    integral  32    'h8c0000d8
  Pwdata   integral  32    'h0       
  Prdata   integral  32    'h46df998d
  Pselx    integral  4     'h8       
-------------------------------------
Address Compared Successfully
Data Compared Successfully
UVM_INFO ../source/ahb_monitor.sv(69) @ 165000: uvm_test_top.env_h.ahb_top.ahb.monh [AHB MONITOR] Printing from AHB MONITOR 
 ------------------------------------
Name      Type      Size  Value     
------------------------------------
xtn       ahb_xtn   -     @1278     
  Haddr   integral  32    'h8c0000dc
  Hwdata  integral  32    'h0       
  Hsize   integral  3     'h2       
  Htrans  integral  2     'h3       
  Hwrite  integral  1     'h0       
  Hrdata  integral  32    'hb2c28465
------------------------------------

UVM_INFO ../destination/apb_monitor.sv(53) @ 165000: uvm_test_top.env_h.apb_top.apb.monh [APB Monitor] Printing from APB Monitor 
 -------------------------------------
Name       Type      Size  Value     
-------------------------------------
xtn        apb_xtn   -     @1282     
  Penable  integral  1     'h1       
  Pwrite   integral  1     'h0       
  Paddr    integral  32    'h8c0000dc
  Pwdata   integral  32    'h0       
  Prdata   integral  32    'hb2c28465
  Pselx    integral  4     'h8       
-------------------------------------

UVM_INFO ../source/ahb_driver.sv(72) @ 165000: uvm_test_top.env_h.ahb_top.ahb.drvh [AHB DRIVER] Printing from AHB Driver 
 ------------------------------------
Name      Type      Size  Value     
------------------------------------
req       ahb_xtn   -     @1157     
  Haddr   integral  32    'h8c0000c0
  Hwdata  integral  32    'h5ea6b2ea
  Hsize   integral  3     'h2       
  Htrans  integral  2     'h3       
  Hwrite  integral  1     'h0       
  Hrdata  integral  32    'h0       
------------------------------------

------------------------------------
Name      Type      Size  Value     
------------------------------------
xtn       ahb_xtn   -     @1278     
  Haddr   integral  32    'h8c0000dc
  Hwdata  integral  32    'h0       
  Hsize   integral  3     'h2       
  Htrans  integral  2     'h3       
  Hwrite  integral  1     'h0       
  Hrdata  integral  32    'hb2c28465
------------------------------------
UVM_INFO ../source/ahb_seqs.sv(131) @ 165000: uvm_test_top.env_h.ahb_top.ahb.seqr@@seqs [SOURCE_SEQUENCE - WRAPPING TRANSFER] Randomized data generated
UVM_INFO ../destination/apb_driver.sv(64) @ 175000: uvm_test_top.env_h.apb_top.apb.drvh [APB Driver] Printing from APB Driver 
 -------------------------------------
Name       Type      Size  Value     
-------------------------------------
xtn        apb_xtn   -     @1130     
  Penable  integral  1     'h0       
  Pwrite   integral  1     'h0       
  Paddr    integral  32    'h0       
  Pwdata   integral  32    'h0       
  Prdata   integral  32    'hb2c28465
  Pselx    integral  4     'h0       
-------------------------------------

-------------------------------------
Name       Type      Size  Value     
-------------------------------------
xtn        apb_xtn   -     @1282     
  Penable  integral  1     'h1       
  Pwrite   integral  1     'h0       
  Paddr    integral  32    'h8c0000dc
  Pwdata   integral  32    'h0       
  Prdata   integral  32    'hb2c28465
  Pselx    integral  4     'h8       
-------------------------------------
Address Compared Successfully
Data Compared Successfully
Width = 32, size 32 bits
UVM_INFO ../source/ahb_monitor.sv(69) @ 185000: uvm_test_top.env_h.ahb_top.ahb.monh [AHB MONITOR] Printing from AHB MONITOR 
 ------------------------------------
Name      Type      Size  Value     
------------------------------------
xtn       ahb_xtn   -     @1286     
  Haddr   integral  32    'h8c0000c0
  Hwdata  integral  32    'h0       
  Hsize   integral  3     'h2       
  Htrans  integral  2     'h3       
  Hwrite  integral  1     'h0       
  Hrdata  integral  32    'h89375212
------------------------------------

UVM_INFO ../destination/apb_monitor.sv(53) @ 185000: uvm_test_top.env_h.apb_top.apb.monh [APB Monitor] Printing from APB Monitor 
 -------------------------------------
Name       Type      Size  Value     
-------------------------------------
xtn        apb_xtn   -     @1294     
  Penable  integral  1     'h1       
  Pwrite   integral  1     'h0       
  Paddr    integral  32    'h8c0000c0
  Pwdata   integral  32    'h0       
  Prdata   integral  32    'h89375212
  Pselx    integral  4     'h4       
-------------------------------------

UVM_INFO ../source/ahb_driver.sv(72) @ 185000: uvm_test_top.env_h.ahb_top.ahb.drvh [AHB DRIVER] Printing from AHB Driver 
 ------------------------------------
Name      Type      Size  Value     
------------------------------------
req       ahb_xtn   -     @1290     
  Haddr   integral  32    'h8800026c
  Hwdata  integral  32    'h9da2c7ea
  Hsize   integral  3     'h0       
  Htrans  integral  2     'h2       
  Hwrite  integral  1     'h1       
  Hrdata  integral  32    'h0       
------------------------------------

------------------------------------
Name      Type      Size  Value     
------------------------------------
xtn       ahb_xtn   -     @1286     
  Haddr   integral  32    'h8c0000c0
  Hwdata  integral  32    'h0       
  Hsize   integral  3     'h2       
  Htrans  integral  2     'h3       
  Hwrite  integral  1     'h0       
  Hrdata  integral  32    'h89375212
------------------------------------
Starting address = 88000268
Boundary address = 88000270
Width = 32, size 8 bits
UVM_INFO ../source/ahb_monitor.sv(69) @ 195000: uvm_test_top.env_h.ahb_top.ahb.monh [AHB MONITOR] Printing from AHB MONITOR 
 ------------------------------------
Name      Type      Size  Value     
------------------------------------
xtn       ahb_xtn   -     @1298     
  Haddr   integral  32    'h8800026c
  Hwdata  integral  32    'h9da2c7ea
  Hsize   integral  3     'h0       
  Htrans  integral  2     'h2       
  Hwrite  integral  1     'h1       
  Hrdata  integral  32    'h0       
------------------------------------

UVM_INFO ../destination/apb_driver.sv(64) @ 195000: uvm_test_top.env_h.apb_top.apb.drvh [APB Driver] Printing from APB Driver 
 -------------------------------------
Name       Type      Size  Value     
-------------------------------------
xtn        apb_xtn   -     @1130     
  Penable  integral  1     'h0       
  Pwrite   integral  1     'h0       
  Paddr    integral  32    'h0       
  Pwdata   integral  32    'h0       
  Prdata   integral  32    'h89375212
  Pselx    integral  4     'h0       
-------------------------------------

UVM_INFO ../source/ahb_driver.sv(72) @ 195000: uvm_test_top.env_h.ahb_top.ahb.drvh [AHB DRIVER] Printing from AHB Driver 
 ------------------------------------
Name      Type      Size  Value     
------------------------------------
req       ahb_xtn   -     @1290     
  Haddr   integral  32    'h8800026d
  Hwdata  integral  32    'he967b34a
  Hsize   integral  3     'h0       
  Htrans  integral  2     'h3       
  Hwrite  integral  1     'h1       
  Hrdata  integral  32    'h0       
------------------------------------

-------------------------------------
Name       Type      Size  Value     
-------------------------------------
xtn        apb_xtn   -     @1294     
  Penable  integral  1     'h1       
  Pwrite   integral  1     'h0       
  Paddr    integral  32    'h8c0000c0
  Pwdata   integral  32    'h0       
  Prdata   integral  32    'h89375212
  Pselx    integral  4     'h4       
-------------------------------------
Address Compared Successfully
Data Compared Successfully
------------------------------------
Name      Type      Size  Value     
------------------------------------
xtn       ahb_xtn   -     @1298     
  Haddr   integral  32    'h8800026c
  Hwdata  integral  32    'h9da2c7ea
  Hsize   integral  3     'h0       
  Htrans  integral  2     'h2       
  Hwrite  integral  1     'h1       
  Hrdata  integral  32    'h0       
------------------------------------
Width = 32, size 8 bits
                 215BYTE0_endian1
                 215BYTE1_endian1
                 215BYTE1_endian1
UVM_INFO ../source/ahb_monitor.sv(69) @ 215000: uvm_test_top.env_h.ahb_top.ahb.monh [AHB MONITOR] Printing from AHB MONITOR 
 ------------------------------------
Name      Type      Size  Value     
------------------------------------
xtn       ahb_xtn   -     @1302     
  Haddr   integral  32    'h8800026d
  Hwdata  integral  32    'he967b34a
  Hsize   integral  3     'h0       
  Htrans  integral  2     'h3       
  Hwrite  integral  1     'h1       
  Hrdata  integral  32    'h0       
------------------------------------

UVM_INFO ../destination/apb_driver.sv(64) @ 215000: uvm_test_top.env_h.apb_top.apb.drvh [APB Driver] Printing from APB Driver 
 -----------------------------------
Name       Type      Size  Value   
-----------------------------------
xtn        apb_xtn   -     @1130   
  Penable  integral  1     'h0     
  Pwrite   integral  1     'h1     
  Paddr    integral  32    'h0     
  Pwdata   integral  32    'h0     
  Prdata   integral  32    'hf3e301
  Pselx    integral  4     'h0     
-----------------------------------

UVM_INFO ../destination/apb_monitor.sv(53) @ 215000: uvm_test_top.env_h.apb_top.apb.monh [APB Monitor] Printing from APB Monitor 
 -------------------------------------
Name       Type      Size  Value     
-------------------------------------
xtn        apb_xtn   -     @1306     
  Penable  integral  1     'h1       
  Pwrite   integral  1     'h1       
  Paddr    integral  32    'h8800026c
  Pwdata   integral  32    'h0       
  Prdata   integral  32    'h0       
  Pselx    integral  4     'h4       
-------------------------------------

UVM_INFO ../source/ahb_driver.sv(72) @ 215000: uvm_test_top.env_h.ahb_top.ahb.drvh [AHB DRIVER] Printing from AHB Driver 
 ------------------------------------
Name      Type      Size  Value     
------------------------------------
req       ahb_xtn   -     @1290     
  Haddr   integral  32    'h8800026e
  Hwdata  integral  32    'hcf6c5d83
  Hsize   integral  3     'h0       
  Htrans  integral  2     'h3       
  Hwrite  integral  1     'h1       
  Hrdata  integral  32    'h0       
------------------------------------

-------------------------------------
Name       Type      Size  Value     
-------------------------------------
xtn        apb_xtn   -     @1306     
  Penable  integral  1     'h1       
  Pwrite   integral  1     'h1       
  Paddr    integral  32    'h8800026c
  Pwdata   integral  32    'h0       
  Prdata   integral  32    'h0       
  Pselx    integral  4     'h4       
-------------------------------------
Address Compared Successfully
Data comparision failed
------------------------------------
Name      Type      Size  Value     
------------------------------------
xtn       ahb_xtn   -     @1302     
  Haddr   integral  32    'h8800026d
  Hwdata  integral  32    'he967b34a
  Hsize   integral  3     'h0       
  Htrans  integral  2     'h3       
  Hwrite  integral  1     'h1       
  Hrdata  integral  32    'h0       
------------------------------------
Width = 32, size 8 bits
                 235BYTE1_endian1
                 235BYTE2_endian1
                 235BYTE2_endian1
UVM_INFO ../source/ahb_monitor.sv(69) @ 235000: uvm_test_top.env_h.ahb_top.ahb.monh [AHB MONITOR] Printing from AHB MONITOR 
 ------------------------------------
Name      Type      Size  Value     
------------------------------------
xtn       ahb_xtn   -     @1310     
  Haddr   integral  32    'h8800026e
  Hwdata  integral  32    'hcf6c5d83
  Hsize   integral  3     'h0       
  Htrans  integral  2     'h3       
  Hwrite  integral  1     'h1       
  Hrdata  integral  32    'h0       
------------------------------------

UVM_INFO ../destination/apb_driver.sv(64) @ 235000: uvm_test_top.env_h.apb_top.apb.drvh [APB Driver] Printing from APB Driver 
 -----------------------------------
Name       Type      Size  Value   
-----------------------------------
xtn        apb_xtn   -     @1130   
  Penable  integral  1     'h0     
  Pwrite   integral  1     'h1     
  Paddr    integral  32    'h0     
  Pwdata   integral  32    'h0     
  Prdata   integral  32    'hf3e301
  Pselx    integral  4     'h0     
-----------------------------------

UVM_INFO ../destination/apb_monitor.sv(53) @ 235000: uvm_test_top.env_h.apb_top.apb.monh [APB Monitor] Printing from APB Monitor 
 -------------------------------------
Name       Type      Size  Value     
-------------------------------------
xtn        apb_xtn   -     @1314     
  Penable  integral  1     'h1       
  Pwrite   integral  1     'h1       
  Paddr    integral  32    'h8800026d
  Pwdata   integral  32    'hb3      
  Prdata   integral  32    'h0       
  Pselx    integral  4     'h4       
-------------------------------------

UVM_INFO ../source/ahb_driver.sv(72) @ 235000: uvm_test_top.env_h.ahb_top.ahb.drvh [AHB DRIVER] Printing from AHB Driver 
 ------------------------------------
Name      Type      Size  Value     
------------------------------------
req       ahb_xtn   -     @1290     
  Haddr   integral  32    'h8800026f
  Hwdata  integral  32    'h606a54a 
  Hsize   integral  3     'h0       
  Htrans  integral  2     'h3       
  Hwrite  integral  1     'h1       
  Hrdata  integral  32    'h0       
------------------------------------

-------------------------------------
Name       Type      Size  Value     
-------------------------------------
xtn        apb_xtn   -     @1314     
  Penable  integral  1     'h1       
  Pwrite   integral  1     'h1       
  Paddr    integral  32    'h8800026d
  Pwdata   integral  32    'hb3      
  Prdata   integral  32    'h0       
  Pselx    integral  4     'h4       
-------------------------------------
Address Compared Successfully
Data Compared Successfully
------------------------------------
Name      Type      Size  Value     
------------------------------------
xtn       ahb_xtn   -     @1310     
  Haddr   integral  32    'h8800026e
  Hwdata  integral  32    'hcf6c5d83
  Hsize   integral  3     'h0       
  Htrans  integral  2     'h3       
  Hwrite  integral  1     'h1       
  Hrdata  integral  32    'h0       
------------------------------------
Width = 32, size 8 bits
                 255BYTE2_endian1
                 255BYTE3_endian1
UVM_INFO ../source/ahb_monitor.sv(69) @ 255000: uvm_test_top.env_h.ahb_top.ahb.monh [AHB MONITOR] Printing from AHB MONITOR 
 ------------------------------------
Name      Type      Size  Value     
------------------------------------
xtn       ahb_xtn   -     @1318     
  Haddr   integral  32    'h8800026f
  Hwdata  integral  32    'h606a54a 
  Hsize   integral  3     'h0       
  Htrans  integral  2     'h3       
  Hwrite  integral  1     'h1       
  Hrdata  integral  32    'h0       
------------------------------------

UVM_INFO ../destination/apb_driver.sv(64) @ 255000: uvm_test_top.env_h.apb_top.apb.drvh [APB Driver] Printing from APB Driver 
 -----------------------------------
Name       Type      Size  Value   
-----------------------------------
xtn        apb_xtn   -     @1130   
  Penable  integral  1     'h0     
  Pwrite   integral  1     'h1     
  Paddr    integral  32    'h0     
  Pwdata   integral  32    'h0     
  Prdata   integral  32    'hf3e301
  Pselx    integral  4     'h0     
-----------------------------------

UVM_INFO ../destination/apb_monitor.sv(53) @ 255000: uvm_test_top.env_h.apb_top.apb.monh [APB Monitor] Printing from APB Monitor 
 -------------------------------------
Name       Type      Size  Value     
-------------------------------------
xtn        apb_xtn   -     @1322     
  Penable  integral  1     'h1       
  Pwrite   integral  1     'h1       
  Paddr    integral  32    'h8800026e
  Pwdata   integral  32    'h6c      
  Prdata   integral  32    'h0       
  Pselx    integral  4     'h4       
-------------------------------------

UVM_INFO ../source/ahb_driver.sv(72) @ 255000: uvm_test_top.env_h.ahb_top.ahb.drvh [AHB DRIVER] Printing from AHB Driver 
 ------------------------------------
Name      Type      Size  Value     
------------------------------------
req       ahb_xtn   -     @1290     
  Haddr   integral  32    'h88000268
  Hwdata  integral  32    'he26d73b6
  Hsize   integral  3     'h0       
  Htrans  integral  2     'h3       
  Hwrite  integral  1     'h1       
  Hrdata  integral  32    'h0       
------------------------------------

-------------------------------------
Name       Type      Size  Value     
-------------------------------------
xtn        apb_xtn   -     @1322     
  Penable  integral  1     'h1       
  Pwrite   integral  1     'h1       
  Paddr    integral  32    'h8800026e
  Pwdata   integral  32    'h6c      
  Prdata   integral  32    'h0       
  Pselx    integral  4     'h4       
-------------------------------------
Address Compared Successfully
Data Compared Successfully
------------------------------------
Name      Type      Size  Value     
------------------------------------
xtn       ahb_xtn   -     @1318     
  Haddr   integral  32    'h8800026f
  Hwdata  integral  32    'h606a54a 
  Hsize   integral  3     'h0       
  Htrans  integral  2     'h3       
  Hwrite  integral  1     'h1       
  Hrdata  integral  32    'h0       
------------------------------------
Width = 32, size 8 bits
                 275BYTE3_endian1
                 275BYTE0_endian1
                 275BYTE0_endian1
UVM_INFO ../source/ahb_monitor.sv(69) @ 275000: uvm_test_top.env_h.ahb_top.ahb.monh [AHB MONITOR] Printing from AHB MONITOR 
 ------------------------------------
Name      Type      Size  Value     
------------------------------------
xtn       ahb_xtn   -     @1326     
  Haddr   integral  32    'h88000268
  Hwdata  integral  32    'he26d73b6
  Hsize   integral  3     'h0       
  Htrans  integral  2     'h3       
  Hwrite  integral  1     'h1       
  Hrdata  integral  32    'h0       
------------------------------------

UVM_INFO ../destination/apb_driver.sv(64) @ 275000: uvm_test_top.env_h.apb_top.apb.drvh [APB Driver] Printing from APB Driver 
 -----------------------------------
Name       Type      Size  Value   
-----------------------------------
xtn        apb_xtn   -     @1130   
  Penable  integral  1     'h0     
  Pwrite   integral  1     'h1     
  Paddr    integral  32    'h0     
  Pwdata   integral  32    'h0     
  Prdata   integral  32    'hf3e301
  Pselx    integral  4     'h0     
-----------------------------------

UVM_INFO ../destination/apb_monitor.sv(53) @ 275000: uvm_test_top.env_h.apb_top.apb.monh [APB Monitor] Printing from APB Monitor 
 -------------------------------------
Name       Type      Size  Value     
-------------------------------------
xtn        apb_xtn   -     @1330     
  Penable  integral  1     'h1       
  Pwrite   integral  1     'h1       
  Paddr    integral  32    'h8800026f
  Pwdata   integral  32    'h6       
  Prdata   integral  32    'h0       
  Pselx    integral  4     'h4       
-------------------------------------

UVM_INFO ../source/ahb_driver.sv(72) @ 275000: uvm_test_top.env_h.ahb_top.ahb.drvh [AHB DRIVER] Printing from AHB Driver 
 ------------------------------------
Name      Type      Size  Value     
------------------------------------
req       ahb_xtn   -     @1290     
  Haddr   integral  32    'h88000269
  Hwdata  integral  32    'h9cda7ada
  Hsize   integral  3     'h0       
  Htrans  integral  2     'h3       
  Hwrite  integral  1     'h1       
  Hrdata  integral  32    'h0       
------------------------------------

-------------------------------------
Name       Type      Size  Value     
-------------------------------------
xtn        apb_xtn   -     @1330     
  Penable  integral  1     'h1       
  Pwrite   integral  1     'h1       
  Paddr    integral  32    'h8800026f
  Pwdata   integral  32    'h6       
  Prdata   integral  32    'h0       
  Pselx    integral  4     'h4       
-------------------------------------
Address Compared Successfully
Data Compared Successfully
------------------------------------
Name      Type      Size  Value     
------------------------------------
xtn       ahb_xtn   -     @1326     
  Haddr   integral  32    'h88000268
  Hwdata  integral  32    'he26d73b6
  Hsize   integral  3     'h0       
  Htrans  integral  2     'h3       
  Hwrite  integral  1     'h1       
  Hrdata  integral  32    'h0       
------------------------------------
Width = 32, size 8 bits
                 295BYTE0_endian1
                 295BYTE1_endian1
                 295BYTE1_endian1
UVM_INFO ../source/ahb_monitor.sv(69) @ 295000: uvm_test_top.env_h.ahb_top.ahb.monh [AHB MONITOR] Printing from AHB MONITOR 
 ------------------------------------
Name      Type      Size  Value     
------------------------------------
xtn       ahb_xtn   -     @1334     
  Haddr   integral  32    'h88000269
  Hwdata  integral  32    'h9cda7ada
  Hsize   integral  3     'h0       
  Htrans  integral  2     'h3       
  Hwrite  integral  1     'h1       
  Hrdata  integral  32    'h0       
------------------------------------

UVM_INFO ../destination/apb_driver.sv(64) @ 295000: uvm_test_top.env_h.apb_top.apb.drvh [APB Driver] Printing from APB Driver 
 -----------------------------------
Name       Type      Size  Value   
-----------------------------------
xtn        apb_xtn   -     @1130   
  Penable  integral  1     'h0     
  Pwrite   integral  1     'h1     
  Paddr    integral  32    'h0     
  Pwdata   integral  32    'h0     
  Prdata   integral  32    'hf3e301
  Pselx    integral  4     'h0     
-----------------------------------

UVM_INFO ../destination/apb_monitor.sv(53) @ 295000: uvm_test_top.env_h.apb_top.apb.monh [APB Monitor] Printing from APB Monitor 
 -------------------------------------
Name       Type      Size  Value     
-------------------------------------
xtn        apb_xtn   -     @1338     
  Penable  integral  1     'h1       
  Pwrite   integral  1     'h1       
  Paddr    integral  32    'h88000268
  Pwdata   integral  32    'hb6      
  Prdata   integral  32    'h0       
  Pselx    integral  4     'h4       
-------------------------------------

UVM_INFO ../source/ahb_driver.sv(72) @ 295000: uvm_test_top.env_h.ahb_top.ahb.drvh [AHB DRIVER] Printing from AHB Driver 
 ------------------------------------
Name      Type      Size  Value     
------------------------------------
req       ahb_xtn   -     @1290     
  Haddr   integral  32    'h8800026a
  Hwdata  integral  32    'haac0840e
  Hsize   integral  3     'h0       
  Htrans  integral  2     'h3       
  Hwrite  integral  1     'h1       
  Hrdata  integral  32    'h0       
------------------------------------

-------------------------------------
Name       Type      Size  Value     
-------------------------------------
xtn        apb_xtn   -     @1338     
  Penable  integral  1     'h1       
  Pwrite   integral  1     'h1       
  Paddr    integral  32    'h88000268
  Pwdata   integral  32    'hb6      
  Prdata   integral  32    'h0       
  Pselx    integral  4     'h4       
-------------------------------------
Address Compared Successfully
Data Compared Successfully
------------------------------------
Name      Type      Size  Value     
------------------------------------
xtn       ahb_xtn   -     @1334     
  Haddr   integral  32    'h88000269
  Hwdata  integral  32    'h9cda7ada
  Hsize   integral  3     'h0       
  Htrans  integral  2     'h3       
  Hwrite  integral  1     'h1       
  Hrdata  integral  32    'h0       
------------------------------------
Width = 32, size 8 bits
                 315BYTE1_endian1
                 315BYTE2_endian1
                 315BYTE2_endian1
UVM_INFO ../source/ahb_monitor.sv(69) @ 315000: uvm_test_top.env_h.ahb_top.ahb.monh [AHB MONITOR] Printing from AHB MONITOR 
 ------------------------------------
Name      Type      Size  Value     
------------------------------------
xtn       ahb_xtn   -     @1342     
  Haddr   integral  32    'h8800026a
  Hwdata  integral  32    'haac0840e
  Hsize   integral  3     'h0       
  Htrans  integral  2     'h3       
  Hwrite  integral  1     'h1       
  Hrdata  integral  32    'h0       
------------------------------------

UVM_INFO ../destination/apb_driver.sv(64) @ 315000: uvm_test_top.env_h.apb_top.apb.drvh [APB Driver] Printing from APB Driver 
 -----------------------------------
Name       Type      Size  Value   
-----------------------------------
xtn        apb_xtn   -     @1130   
  Penable  integral  1     'h0     
  Pwrite   integral  1     'h1     
  Paddr    integral  32    'h0     
  Pwdata   integral  32    'h0     
  Prdata   integral  32    'hf3e301
  Pselx    integral  4     'h0     
-----------------------------------

UVM_INFO ../destination/apb_monitor.sv(53) @ 315000: uvm_test_top.env_h.apb_top.apb.monh [APB Monitor] Printing from APB Monitor 
 -------------------------------------
Name       Type      Size  Value     
-------------------------------------
xtn        apb_xtn   -     @1346     
  Penable  integral  1     'h1       
  Pwrite   integral  1     'h1       
  Paddr    integral  32    'h88000269
  Pwdata   integral  32    'h7a      
  Prdata   integral  32    'h0       
  Pselx    integral  4     'h4       
-------------------------------------

UVM_INFO ../source/ahb_driver.sv(72) @ 315000: uvm_test_top.env_h.ahb_top.ahb.drvh [AHB DRIVER] Printing from AHB Driver 
 ------------------------------------
Name      Type      Size  Value     
------------------------------------
req       ahb_xtn   -     @1290     
  Haddr   integral  32    'h8800026b
  Hwdata  integral  32    'h221314ac
  Hsize   integral  3     'h0       
  Htrans  integral  2     'h3       
  Hwrite  integral  1     'h1       
  Hrdata  integral  32    'h0       
------------------------------------

UVM_INFO ../source/ahb_seqs.sv(131) @ 315000: uvm_test_top.env_h.ahb_top.ahb.seqr@@seqs [SOURCE_SEQUENCE - WRAPPING TRANSFER] Randomized data generated
-------------------------------------
Name       Type      Size  Value     
-------------------------------------
xtn        apb_xtn   -     @1346     
  Penable  integral  1     'h1       
  Pwrite   integral  1     'h1       
  Paddr    integral  32    'h88000269
  Pwdata   integral  32    'h7a      
  Prdata   integral  32    'h0       
  Pselx    integral  4     'h4       
-------------------------------------
Address Compared Successfully
Data Compared Successfully
------------------------------------
Name      Type      Size  Value     
------------------------------------
xtn       ahb_xtn   -     @1342     
  Haddr   integral  32    'h8800026a
  Hwdata  integral  32    'haac0840e
  Hsize   integral  3     'h0       
  Htrans  integral  2     'h3       
  Hwrite  integral  1     'h1       
  Hrdata  integral  32    'h0       
------------------------------------
Width = 32, size 8 bits
                 335BYTE2_endian1
                 335BYTE3_endian1
                 335BYTE3_endian1
UVM_INFO ../source/ahb_monitor.sv(69) @ 335000: uvm_test_top.env_h.ahb_top.ahb.monh [AHB MONITOR] Printing from AHB MONITOR 
 ------------------------------------
Name      Type      Size  Value     
------------------------------------
xtn       ahb_xtn   -     @1350     
  Haddr   integral  32    'h8800026b
  Hwdata  integral  32    'h221314ac
  Hsize   integral  3     'h0       
  Htrans  integral  2     'h3       
  Hwrite  integral  1     'h1       
  Hrdata  integral  32    'h0       
------------------------------------

UVM_INFO ../destination/apb_driver.sv(64) @ 335000: uvm_test_top.env_h.apb_top.apb.drvh [APB Driver] Printing from APB Driver 
 -----------------------------------
Name       Type      Size  Value   
-----------------------------------
xtn        apb_xtn   -     @1130   
  Penable  integral  1     'h0     
  Pwrite   integral  1     'h1     
  Paddr    integral  32    'h0     
  Pwdata   integral  32    'h0     
  Prdata   integral  32    'hf3e301
  Pselx    integral  4     'h0     
-----------------------------------

UVM_INFO ../destination/apb_monitor.sv(53) @ 335000: uvm_test_top.env_h.apb_top.apb.monh [APB Monitor] Printing from APB Monitor 
 -------------------------------------
Name       Type      Size  Value     
-------------------------------------
xtn        apb_xtn   -     @1358     
  Penable  integral  1     'h1       
  Pwrite   integral  1     'h1       
  Paddr    integral  32    'h8800026a
  Pwdata   integral  32    'hc0      
  Prdata   integral  32    'h0       
  Pselx    integral  4     'h4       
-------------------------------------

UVM_INFO ../source/ahb_driver.sv(72) @ 335000: uvm_test_top.env_h.ahb_top.ahb.drvh [AHB DRIVER] Printing from AHB Driver 
 ------------------------------------
Name      Type      Size  Value     
------------------------------------
req       ahb_xtn   -     @1354     
  Haddr   integral  32    'h88000190
  Hwdata  integral  32    'h8eb1c92a
  Hsize   integral  3     'h1       
  Htrans  integral  2     'h2       
  Hwrite  integral  1     'h1       
  Hrdata  integral  32    'h0       
------------------------------------

Starting address = 88000190
Boundary address = 880001a0
-------------------------------------
Name       Type      Size  Value     
-------------------------------------
xtn        apb_xtn   -     @1358     
  Penable  integral  1     'h1       
  Pwrite   integral  1     'h1       
  Paddr    integral  32    'h8800026a
  Pwdata   integral  32    'hc0      
  Prdata   integral  32    'h0       
  Pselx    integral  4     'h4       
-------------------------------------
Address Compared Successfully
Data Compared Successfully
------------------------------------
Name      Type      Size  Value     
------------------------------------
xtn       ahb_xtn   -     @1350     
  Haddr   integral  32    'h8800026b
  Hwdata  integral  32    'h221314ac
  Hsize   integral  3     'h0       
  Htrans  integral  2     'h3       
  Hwrite  integral  1     'h1       
  Hrdata  integral  32    'h0       
------------------------------------
Width = 32, size 16 bits
UVM_INFO ../source/ahb_monitor.sv(69) @ 355000: uvm_test_top.env_h.ahb_top.ahb.monh [AHB MONITOR] Printing from AHB MONITOR 
 ------------------------------------
Name      Type      Size  Value     
------------------------------------
xtn       ahb_xtn   -     @1362     
  Haddr   integral  32    'h88000190
  Hwdata  integral  32    'h8eb1c92a
  Hsize   integral  3     'h1       
  Htrans  integral  2     'h2       
  Hwrite  integral  1     'h1       
  Hrdata  integral  32    'h0       
------------------------------------

UVM_INFO ../destination/apb_driver.sv(64) @ 355000: uvm_test_top.env_h.apb_top.apb.drvh [APB Driver] Printing from APB Driver 
 -----------------------------------
Name       Type      Size  Value   
-----------------------------------
xtn        apb_xtn   -     @1130   
  Penable  integral  1     'h0     
  Pwrite   integral  1     'h1     
  Paddr    integral  32    'h0     
  Pwdata   integral  32    'h0     
  Prdata   integral  32    'hf3e301
  Pselx    integral  4     'h0     
-----------------------------------

UVM_INFO ../destination/apb_monitor.sv(53) @ 355000: uvm_test_top.env_h.apb_top.apb.monh [APB Monitor] Printing from APB Monitor 
 -------------------------------------
Name       Type      Size  Value     
-------------------------------------
xtn        apb_xtn   -     @1366     
  Penable  integral  1     'h1       
  Pwrite   integral  1     'h1       
  Paddr    integral  32    'h8800026b
  Pwdata   integral  32    'h22      
  Prdata   integral  32    'h0       
  Pselx    integral  4     'h4       
-------------------------------------

UVM_INFO ../source/ahb_driver.sv(72) @ 355000: uvm_test_top.env_h.ahb_top.ahb.drvh [AHB DRIVER] Printing from AHB Driver 
 ------------------------------------
Name      Type      Size  Value     
------------------------------------
req       ahb_xtn   -     @1354     
  Haddr   integral  32    'h88000192
  Hwdata  integral  32    'h6c0632bf
  Hsize   integral  3     'h1       
  Htrans  integral  2     'h3       
  Hwrite  integral  1     'h1       
  Hrdata  integral  32    'h0       
------------------------------------

-------------------------------------
Name       Type      Size  Value     
-------------------------------------
xtn        apb_xtn   -     @1366     
  Penable  integral  1     'h1       
  Pwrite   integral  1     'h1       
  Paddr    integral  32    'h8800026b
  Pwdata   integral  32    'h22      
  Prdata   integral  32    'h0       
  Pselx    integral  4     'h4       
-------------------------------------
Address Compared Successfully
Data Compared Successfully
------------------------------------
Name      Type      Size  Value     
------------------------------------
xtn       ahb_xtn   -     @1362     
  Haddr   integral  32    'h88000190
  Hwdata  integral  32    'h8eb1c92a
  Hsize   integral  3     'h1       
  Htrans  integral  2     'h2       
  Hwrite  integral  1     'h1       
  Hrdata  integral  32    'h0       
------------------------------------
Width = 32, size 16 bits
UVM_INFO ../source/ahb_monitor.sv(69) @ 375000: uvm_test_top.env_h.ahb_top.ahb.monh [AHB MONITOR] Printing from AHB MONITOR 
 ------------------------------------
Name      Type      Size  Value     
------------------------------------
xtn       ahb_xtn   -     @1370     
  Haddr   integral  32    'h88000192
  Hwdata  integral  32    'h6c0632bf
  Hsize   integral  3     'h1       
  Htrans  integral  2     'h3       
  Hwrite  integral  1     'h1       
  Hrdata  integral  32    'h0       
------------------------------------

UVM_INFO ../destination/apb_driver.sv(64) @ 375000: uvm_test_top.env_h.apb_top.apb.drvh [APB Driver] Printing from APB Driver 
 -----------------------------------
Name       Type      Size  Value   
-----------------------------------
xtn        apb_xtn   -     @1130   
  Penable  integral  1     'h0     
  Pwrite   integral  1     'h1     
  Paddr    integral  32    'h0     
  Pwdata   integral  32    'h0     
  Prdata   integral  32    'hf3e301
  Pselx    integral  4     'h0     
-----------------------------------

UVM_INFO ../destination/apb_monitor.sv(53) @ 375000: uvm_test_top.env_h.apb_top.apb.monh [APB Monitor] Printing from APB Monitor 
 -------------------------------------
Name       Type      Size  Value     
-------------------------------------
xtn        apb_xtn   -     @1374     
  Penable  integral  1     'h1       
  Pwrite   integral  1     'h1       
  Paddr    integral  32    'h88000190
  Pwdata   integral  32    'hc92a    
  Prdata   integral  32    'h0       
  Pselx    integral  4     'h4       
-------------------------------------

UVM_INFO ../source/ahb_driver.sv(72) @ 375000: uvm_test_top.env_h.ahb_top.ahb.drvh [AHB DRIVER] Printing from AHB Driver 
 ------------------------------------
Name      Type      Size  Value     
------------------------------------
req       ahb_xtn   -     @1354     
  Haddr   integral  32    'h88000194
  Hwdata  integral  32    'h7b4ff694
  Hsize   integral  3     'h1       
  Htrans  integral  2     'h3       
  Hwrite  integral  1     'h1       
  Hrdata  integral  32    'h0       
------------------------------------

-------------------------------------
Name       Type      Size  Value     
-------------------------------------
xtn        apb_xtn   -     @1374     
  Penable  integral  1     'h1       
  Pwrite   integral  1     'h1       
  Paddr    integral  32    'h88000190
  Pwdata   integral  32    'hc92a    
  Prdata   integral  32    'h0       
  Pselx    integral  4     'h4       
-------------------------------------
Address Compared Successfully
Data Compared Successfully
------------------------------------
Name      Type      Size  Value     
------------------------------------
xtn       ahb_xtn   -     @1370     
  Haddr   integral  32    'h88000192
  Hwdata  integral  32    'h6c0632bf
  Hsize   integral  3     'h1       
  Htrans  integral  2     'h3       
  Hwrite  integral  1     'h1       
  Hrdata  integral  32    'h0       
------------------------------------
Width = 32, size 16 bits
UVM_INFO ../source/ahb_monitor.sv(69) @ 395000: uvm_test_top.env_h.ahb_top.ahb.monh [AHB MONITOR] Printing from AHB MONITOR 
 ------------------------------------
Name      Type      Size  Value     
------------------------------------
xtn       ahb_xtn   -     @1378     
  Haddr   integral  32    'h88000194
  Hwdata  integral  32    'h7b4ff694
  Hsize   integral  3     'h1       
  Htrans  integral  2     'h3       
  Hwrite  integral  1     'h1       
  Hrdata  integral  32    'h0       
------------------------------------

UVM_INFO ../destination/apb_driver.sv(64) @ 395000: uvm_test_top.env_h.apb_top.apb.drvh [APB Driver] Printing from APB Driver 
 -----------------------------------
Name       Type      Size  Value   
-----------------------------------
xtn        apb_xtn   -     @1130   
  Penable  integral  1     'h0     
  Pwrite   integral  1     'h1     
  Paddr    integral  32    'h0     
  Pwdata   integral  32    'h0     
  Prdata   integral  32    'hf3e301
  Pselx    integral  4     'h0     
-----------------------------------

UVM_INFO ../destination/apb_monitor.sv(53) @ 395000: uvm_test_top.env_h.apb_top.apb.monh [APB Monitor] Printing from APB Monitor 
 -------------------------------------
Name       Type      Size  Value     
-------------------------------------
xtn        apb_xtn   -     @1382     
  Penable  integral  1     'h1       
  Pwrite   integral  1     'h1       
  Paddr    integral  32    'h88000192
  Pwdata   integral  32    'h6c06    
  Prdata   integral  32    'h0       
  Pselx    integral  4     'h4       
-------------------------------------

UVM_INFO ../source/ahb_driver.sv(72) @ 395000: uvm_test_top.env_h.ahb_top.ahb.drvh [AHB DRIVER] Printing from AHB Driver 
 ------------------------------------
Name      Type      Size  Value     
------------------------------------
req       ahb_xtn   -     @1354     
  Haddr   integral  32    'h88000196
  Hwdata  integral  32    'h6a85d886
  Hsize   integral  3     'h1       
  Htrans  integral  2     'h3       
  Hwrite  integral  1     'h1       
  Hrdata  integral  32    'h0       
------------------------------------

-------------------------------------
Name       Type      Size  Value     
-------------------------------------
xtn        apb_xtn   -     @1382     
  Penable  integral  1     'h1       
